[net] backend initialized
Detected Fixed VHD footer -- excluding it from disk geometry
Attached disk C:\VHDs\win10_installer.vhd (16777216 sectors of 512 bytes)
[cpuid] measured host TSC frequency: 1896005410 Hz
[cpuid] leaf 1 override: host EBX=0x01100800 EDX=0xBFEBFBFF -> guest EBX=0x00010800 EDX=0xAFEBFBFF
Loaded 4194304 bytes of UEFI firmware C:\Users\DELL\Downloads\RELEASEX64_OVMF.fd
Mapped UEFI firmware at 0xFFC00000-0xFFFFFFFF, entering run loop
[kd] named pipe \\.\pipe\LocalHostKD ready -- attach WinDbg with -k com:pipe,port=\\.\pipe\LocalHostKD,resets=0,reconnect (COM2, ports 0x2F8-0x2FF)
[kd-reader] outer loop #1: calling ConnectNamedPipe
[pcicfg #1] bus=0 dev=0 func=0 off=0x02 size=2 write=0 val=0x1237 cfg=present
[pcicfg #2] bus=0 dev=1 func=3 off=0x80 size=1 write=0 val=0x0 cfg=present
[pcicfg #3] bus=0 dev=1 func=3 off=0x40 size=4 write=0 val=0x0 cfg=present
[pcicfg #4] bus=0 dev=1 func=3 off=0x40 size=4 write=1 val=0xB000 cfg=present
[pcicfg #5] bus=0 dev=1 func=3 off=0x80 size=1 write=0 val=0x0 cfg=present
[pcicfg #6] bus=0 dev=1 func=3 off=0x80 size=1 write=1 val=0x1 cfg=present
[pcicfg #7] bus=0 dev=0 func=0 off=0x02 size=2 write=0 val=0x1237 cfg=present
[pcicfg #8] bus=0 dev=1 func=3 off=0x80 size=1 write=0 val=0x1 cfg=present
[pcicfg #9] bus=0 dev=1 func=3 off=0x40 size=4 write=0 val=0xB000 cfg=present
[pcicfg #10] bus=0 dev=0 func=0 off=0x02 size=2 write=0 val=0x1237 cfg=present
[pcicfg #11] bus=0 dev=1 func=3 off=0x80 size=1 write=0 val=0x1 cfg=present
[pcicfg #12] bus=0 dev=1 func=3 off=0x40 size=4 write=0 val=0xB000 cfg=present
[pcicfg #13] bus=0 dev=0 func=0 off=0x02 size=2 write=0 val=0x1237 cfg=present
[pcicfg #14] bus=0 dev=1 func=3 off=0x80 size=1 write=0 val=0x1 cfg=present
[pcicfg #15] bus=0 dev=1 func=3 off=0x40 size=4 write=0 val=0xB000 cfg=present
[pcicfg #16] bus=0 dev=0 func=0 off=0x02 size=2 write=0 val=0x1237 cfg=present
[pcicfg #17] bus=0 dev=1 func=3 off=0x80 size=1 write=0 val=0x1 cfg=present
[pcicfg #18] bus=0 dev=1 func=3 off=0x40 size=4 write=0 val=0xB000 cfg=present
[fwcfg] select #1: selector=0x0
[fwcfg] read #1: selector=0x0 offset=0 dataLen=4 stringOp=1 rep=1
[fwcfg] select #2: selector=0x1
[fwcfg] read #2: selector=0x1 offset=0 dataLen=4 stringOp=1 rep=1
[fwcfg] select #3: selector=0x19
[fwcfg] read #3: selector=0x19 offset=0 dataLen=260 stringOp=1 rep=1
[fwcfg] select #4: selector=0x19
[fwcfg] read #4: selector=0x19 offset=0 dataLen=260 stringOp=1 rep=1
[fwcfg] read #5: selector=0x19 offset=4 dataLen=260 stringOp=1 rep=1
[fwcfg] read #6: selector=0x19 offset=8 dataLen=260 stringOp=1 rep=1
[fwcfg] read #7: selector=0x19 offset=10 dataLen=260 stringOp=1 rep=1
[fwcfg] read #8: selector=0x19 offset=12 dataLen=260 stringOp=1 rep=1
[fwcfg] read #9: selector=0x19 offset=68 dataLen=260 stringOp=1 rep=1
[fwcfg] read #10: selector=0x19 offset=72 dataLen=260 stringOp=1 rep=1
[fwcfg] read #11: selector=0x19 offset=74 dataLen=260 stringOp=1 rep=1
[fwcfg] read #12: selector=0x19 offset=76 dataLen=260 stringOp=1 rep=1
[fwcfg] read #13: selector=0x19 offset=132 dataLen=260 stringOp=1 rep=1
[fwcfg] read #14: selector=0x19 offset=136 dataLen=260 stringOp=1 rep=1
[fwcfg] read #15: selector=0x19 offset=138 dataLen=260 stringOp=1 rep=1
[fwcfg] read #16: selector=0x19 offset=140 dataLen=260 stringOp=1 rep=1
[fwcfg] read #17: selector=0x19 offset=196 dataLen=260 stringOp=1 rep=1
[fwcfg] read #18: selector=0x19 offset=200 dataLen=260 stringOp=1 rep=1
[fwcfg] read #19: selector=0x19 offset=202 dataLen=260 stringOp=1 rep=1
[fwcfg] read #20: selector=0x19 offset=204 dataLen=260 stringOp=1 rep=1
[fwcfg] select #5: selector=0x19
[fwcfg] read #21: selector=0x19 offset=0 dataLen=260 stringOp=1 rep=1
[fwcfg] read #22: selector=0x19 offset=4 dataLen=260 stringOp=1 rep=1
[fwcfg] read #23: selector=0x19 offset=8 dataLen=260 stringOp=1 rep=1
[fwcfg] read #24: selector=0x19 offset=10 dataLen=260 stringOp=1 rep=1
[fwcfg] read #25: selector=0x19 offset=12 dataLen=260 stringOp=1 rep=1
[fwcfg] read #26: selector=0x19 offset=68 dataLen=260 stringOp=1 rep=1
[fwcfg] read #27: selector=0x19 offset=72 dataLen=260 stringOp=1 rep=1
[fwcfg] read #28: selector=0x19 offset=74 dataLen=260 stringOp=1 rep=1
[fwcfg] read #29: selector=0x19 offset=76 dataLen=260 stringOp=1 rep=1
[fwcfg] read #30: selector=0x19 offset=132 dataLen=260 stringOp=1 rep=1
[fwcfg] read #31: selector=0x19 offset=136 dataLen=260 stringOp=1 rep=1
[fwcfg] read #32: selector=0x19 offset=138 dataLen=260 stringOp=1 rep=1
[fwcfg] read #33: selector=0x19 offset=140 dataLen=260 stringOp=1 rep=1
[fwcfg] read #34: selector=0x19 offset=196 dataLen=260 stringOp=1 rep=1
[fwcfg] read #35: selector=0x19 offset=200 dataLen=260 stringOp=1 rep=1
[fwcfg] read #36: selector=0x19 offset=202 dataLen=260 stringOp=1 rep=1
[fwcfg] read #37: selector=0x19 offset=204 dataLen=260 stringOp=1 rep=1
[fwcfg] select #6: selector=0x19
[fwcfg] read #38: selector=0x19 offset=0 dataLen=260 stringOp=1 rep=1
[fwcfg] read #39: selector=0x19 offset=4 dataLen=260 stringOp=1 rep=1
[fwcfg] read #40: selector=0x19 offset=8 dataLen=260 stringOp=1 rep=1
[fwcfg] read #41: selector=0x19 offset=10 dataLen=260 stringOp=1 rep=1
[fwcfg] read #42: selector=0x19 offset=12 dataLen=260 stringOp=1 rep=1
[fwcfg] read #43: selector=0x19 offset=68 dataLen=260 stringOp=1 rep=1
[fwcfg] read #44: selector=0x19 offset=72 dataLen=260 stringOp=1 rep=1
[fwcfg] read #45: selector=0x19 offset=74 dataLen=260 stringOp=1 rep=1
[fwcfg] read #46: selector=0x19 offset=76 dataLen=260 stringOp=1 rep=1
[fwcfg] read #47: selector=0x19 offset=132 dataLen=260 stringOp=1 rep=1
[fwcfg] read #48: selector=0x19 offset=136 dataLen=260 stringOp=1 rep=1
[fwcfg] read #49: selector=0x19 offset=138 dataLen=260 stringOp=1 rep=1
[fwcfg] read #50: selector=0x19 offset=140 dataLen=260 stringOp=1 rep=1
[fwcfg] read #51: selector=0x19 offset=196 dataLen=260 stringOp=1 rep=1
[fwcfg] read #52: selector=0x19 offset=200 dataLen=260 stringOp=1 rep=1
[fwcfg] read #53: selector=0x19 offset=202 dataLen=260 stringOp=1 rep=1
[fwcfg] read #54: selector=0x19 offset=204 dataLen=260 stringOp=1 rep=1
[fwcfg] select #7: selector=0x19
[fwcfg] read #55: selector=0x19 offset=0 dataLen=260 stringOp=1 rep=1
[fwcfg] read #56: selector=0x19 offset=4 dataLen=260 stringOp=1 rep=1
[fwcfg] read #57: selector=0x19 offset=8 dataLen=260 stringOp=1 rep=1
[fwcfg] read #58: selector=0x19 offset=10 dataLen=260 stringOp=1 rep=1
[fwcfg] read #59: selector=0x19 offset=12 dataLen=260 stringOp=1 rep=1
[fwcfg] read #60: selector=0x19 offset=68 dataLen=260 stringOp=1 rep=1
[fwcfg] select #8: selector=0x19
[fwcfg] select #9: selector=0x19
[fwcfg] select #10: selector=0x19
[fwcfg] select #11: selector=0x0
[fwcfg] select #12: selector=0x1
[fwcfg] select #13: selector=0x19
[fwcfg] select #14: selector=0xE
[pcicfg #19] bus=0 dev=0 func=0 off=0x02 size=2 write=0 val=0x1237 cfg=present
[fwcfg] select #15: selector=0x5
[pcicfg #20] bus=0 dev=1 func=3 off=0x80 size=1 write=0 val=0x1 cfg=present
[pcicfg #21] bus=0 dev=0 func=0 off=0x02 size=2 write=0 val=0x1237 cfg=present
[pcicfg #22] bus=0 dev=1 func=3 off=0x80 size=1 write=0 val=0x1 cfg=present
[pcicfg #23] bus=0 dev=1 func=3 off=0x40 size=4 write=0 val=0xB000 cfg=present
[pcicfg #24] bus=0 dev=0 func=0 off=0x02 size=2 write=0 val=0x1237 cfg=present
[pcicfg #25] bus=0 dev=1 func=3 off=0x80 size=1 write=0 val=0x1 cfg=present
[pcicfg #26] bus=0 dev=1 func=3 off=0x40 size=4 write=0 val=0xB000 cfg=present
[pcicfg #27] bus=0 dev=0 func=0 off=0x02 size=2 write=0 val=0x1237 cfg=present
[pcicfg #28] bus=0 dev=1 func=3 off=0x80 size=1 write=0 val=0x1 cfg=present
[pcicfg #29] bus=0 dev=1 func=3 off=0x40 size=4 write=0 val=0xB000 cfg=present
[pcicfg #30] bus=0 dev=0 func=0 off=0x02 size=2 write=0 val=0x1237 cfg=present
[pcicfg #31] bus=0 dev=1 func=3 off=0x80 size=1 write=0 val=0x1 cfg=present
[pcicfg #32] bus=0 dev=1 func=3 off=0x40 size=4 write=0 val=0xB000 cfg=present
[heartbeat: exitCount=5000 elapsedSec=0.0 lastPort=0xB008 write=0 val=0x2 rip=0xBFC504C1 (not in ntoskrnl) irql=0]
[heartbeat]   totals: pciCfgAccesses=32 ahciCmds=0 (reads=0 writes=0 other=0)
[pcicfg #33] bus=0 dev=0 func=0 off=0x02 size=2 write=0 val=0x1237 cfg=present
[pcicfg #34] bus=0 dev=1 func=3 off=0x80 size=1 write=0 val=0x1 cfg=present
[pcicfg #35] bus=0 dev=1 func=3 off=0x40 size=4 write=0 val=0xB000 cfg=present
[pcicfg #36] bus=0 dev=1 func=3 off=0x40 size=4 write=0 val=0xB000 cfg=present
[pcicfg #37] bus=0 dev=1 func=3 off=0x40 size=4 write=0 val=0xB000 cfg=present
[pcicfg #38] bus=0 dev=1 func=3 off=0x40 size=4 write=0 val=0xB000 cfg=present
[pcicfg #39] bus=0 dev=1 func=3 off=0x40 size=4 write=0 val=0xB000 cfg=present
[pcicfg #40] bus=0 dev=1 func=3 off=0x40 size=4 write=0 val=0xB000 cfg=present
[pcicfg #41] bus=0 dev=1 func=3 off=0x40 size=4 write=0 val=0xB000 cfg=present
[pcicfg #42] bus=0 dev=1 func=3 off=0x40 size=4 write=0 val=0xB000 cfg=present
[pcicfg #43] bus=0 dev=1 func=3 off=0x40 size=4 write=0 val=0xB000 cfg=present
[pcicfg #44] bus=0 dev=1 func=3 off=0x40 size=4 write=0 val=0xB000 cfg=present
[pcicfg #45] bus=0 dev=1 func=3 off=0x40 size=4 write=0 val=0xB000 cfg=present
[pcicfg #46] bus=0 dev=1 func=3 off=0x40 size=4 write=0 val=0xB000 cfg=present
[pcicfg #47] bus=0 dev=1 func=3 off=0x40 size=4 write=0 val=0xB000 cfg=present
[pcicfg #48] bus=0 dev=1 func=3 off=0x40 size=4 write=0 val=0xB000 cfg=present
[pcicfg #49] bus=0 dev=1 func=3 off=0x40 size=4 write=0 val=0xB000 cfg=present
[fwcfg] select #16: selector=0x23
[ramfb] configured: address=0xBE500000 800x600 stride=3200
[pcicfg #50] bus=0 dev=1 func=3 off=0x40 size=4 write=0 val=0xB000 cfg=present
[pcicfg #51] bus=0 dev=1 func=3 off=0x40 size=4 write=0 val=0xB000 cfg=present
[cmos-ab] write reg=0x0A value=0x26 (RegA=0x26 RegB=0x06, PIE=0)
[cmos-ab] write reg=0x0B value=0x02 (RegA=0x26 RegB=0x02, PIE=0)
[cmos-ab] write reg=0x0B value=0x82 (RegA=0x26 RegB=0x82, PIE=0)
[cmos-ab] write reg=0x0A value=0x76 (RegA=0x76 RegB=0x82, PIE=0)
[cmos-ab] write reg=0x0B value=0x02 (RegA=0x76 RegB=0x02, PIE=0)
[cmos-ab] write reg=0x0A value=0x26 (RegA=0x26 RegB=0x02, PIE=0)
[pcicfg #52] bus=0 dev=1 func=3 off=0x40 size=4 write=0 val=0xB000 cfg=present
[fwcfg] select #17: selector=0x17
[fwcfg] select #18: selector=0x8
[fwcfg] select #19: selector=0xB
[fwcfg] select #20: selector=0x14
[pcicfg #53] bus=0 dev=1 func=3 off=0x40 size=4 write=0 val=0xB000 cfg=present
[pcicfg #54] bus=0 dev=1 func=3 off=0x40 size=4 write=0 val=0xB000 cfg=present
[pcicfg #55] bus=0 dev=1 func=3 off=0x40 size=4 write=0 val=0xB000 cfg=present
[pcicfg #56] bus=0 dev=1 func=3 off=0x40 size=4 write=0 val=0xB000 cfg=present
[pcicfg #57] bus=0 dev=1 func=3 off=0x40 size=4 write=0 val=0xB000 cfg=present
[pcicfg #58] bus=0 dev=1 func=3 off=0x40 size=4 write=0 val=0xB000 cfg=present
[pcicfg #59] bus=0 dev=1 func=3 off=0x40 size=4 write=0 val=0xB000 cfg=present
[pcicfg #60] bus=0 dev=0 func=0 off=0x00 size=4 write=0 val=0x12378086 cfg=present
[pcicfg #61] bus=0 dev=0 func=0 off=0x00 size=4 write=0 val=0x12378086 cfg=present
[pcicfg #62] bus=0 dev=0 func=0 off=0x04 size=4 write=0 val=0x0 cfg=present
[pcicfg #63] bus=0 dev=0 func=0 off=0x08 size=4 write=0 val=0x6000002 cfg=present
[pcicfg #64] bus=0 dev=0 func=0 off=0x0C size=4 write=0 val=0x0 cfg=present
[pcicfg #65] bus=0 dev=0 func=0 off=0x10 size=4 write=0 val=0x0 cfg=present
[pcicfg #66] bus=0 dev=0 func=0 off=0x14 size=4 write=0 val=0x0 cfg=present
[pcicfg #67] bus=0 dev=0 func=0 off=0x18 size=4 write=0 val=0x0 cfg=present
[pcicfg #68] bus=0 dev=0 func=0 off=0x1C size=4 write=0 val=0x0 cfg=present
[pcicfg #69] bus=0 dev=0 func=0 off=0x20 size=4 write=0 val=0x0 cfg=present
[pcicfg #70] bus=0 dev=0 func=0 off=0x24 size=4 write=0 val=0x0 cfg=present
[pcicfg #71] bus=0 dev=0 func=0 off=0x28 size=4 write=0 val=0x0 cfg=present
[pcicfg #72] bus=0 dev=0 func=0 off=0x2C size=4 write=0 val=0x0 cfg=present
[pcicfg #73] bus=0 dev=0 func=0 off=0x30 size=4 write=0 val=0x0 cfg=present
[pcicfg #74] bus=0 dev=0 func=0 off=0x34 size=4 write=0 val=0x0 cfg=present
[pcicfg #75] bus=0 dev=0 func=0 off=0x38 size=4 write=0 val=0x0 cfg=present
[pcicfg #76] bus=0 dev=0 func=0 off=0x3C size=4 write=0 val=0x0 cfg=present
[pcicfg #77] bus=0 dev=1 func=0 off=0x00 size=4 write=0 val=0x70008086 cfg=present
[pcicfg #78] bus=0 dev=1 func=0 off=0x00 size=4 write=0 val=0x70008086 cfg=present
[pcicfg #79] bus=0 dev=1 func=0 off=0x04 size=4 write=0 val=0x0 cfg=present
[pcicfg #80] bus=0 dev=1 func=0 off=0x08 size=4 write=0 val=0x6010000 cfg=present
[pcicfg #81] bus=0 dev=1 func=0 off=0x0C size=4 write=0 val=0x800000 cfg=present
[pcicfg #82] bus=0 dev=1 func=0 off=0x10 size=4 write=0 val=0x0 cfg=present
[pcicfg #83] bus=0 dev=1 func=0 off=0x14 size=4 write=0 val=0x0 cfg=present
[pcicfg #84] bus=0 dev=1 func=0 off=0x18 size=4 write=0 val=0x0 cfg=present
[pcicfg #85] bus=0 dev=1 func=0 off=0x1C size=4 write=0 val=0x0 cfg=present
[pcicfg #86] bus=0 dev=1 func=0 off=0x20 size=4 write=0 val=0x0 cfg=present
[pcicfg #87] bus=0 dev=1 func=0 off=0x24 size=4 write=0 val=0x0 cfg=present
[pcicfg #88] bus=0 dev=1 func=0 off=0x28 size=4 write=0 val=0x0 cfg=present
[pcicfg #89] bus=0 dev=1 func=0 off=0x2C size=4 write=0 val=0x0 cfg=present
[pcicfg #90] bus=0 dev=1 func=0 off=0x30 size=4 write=0 val=0x0 cfg=present
[pcicfg #91] bus=0 dev=1 func=0 off=0x34 size=4 write=0 val=0x0 cfg=present
[pcicfg #92] bus=0 dev=1 func=0 off=0x38 size=4 write=0 val=0x0 cfg=present
[pcicfg #93] bus=0 dev=1 func=0 off=0x3C size=4 write=0 val=0x0 cfg=present
[pcicfg #94] bus=0 dev=1 func=1 off=0x00 size=4 write=0 val=0xFFFFFFFF cfg=absent
[pcicfg #95] bus=0 dev=1 func=2 off=0x00 size=4 write=0 val=0xFFFFFFFF cfg=absent
[pcicfg #96] bus=0 dev=1 func=3 off=0x00 size=4 write=0 val=0x71138086 cfg=present
[pcicfg #97] bus=0 dev=1 func=3 off=0x00 size=4 write=0 val=0x71138086 cfg=present
[pcicfg #98] bus=0 dev=1 func=3 off=0x04 size=4 write=0 val=0x0 cfg=present
[pcicfg #99] bus=0 dev=1 func=3 off=0x08 size=4 write=0 val=0x6800000 cfg=present
[pcicfg #100] bus=0 dev=1 func=3 off=0x0C size=4 write=0 val=0x0 cfg=present
[pcicfg #101] bus=0 dev=1 func=3 off=0x10 size=4 write=0 val=0x0 cfg=present
[pcicfg #102] bus=0 dev=1 func=3 off=0x14 size=4 write=0 val=0x0 cfg=present
[pcicfg #103] bus=0 dev=1 func=3 off=0x18 size=4 write=0 val=0x0 cfg=present
[pcicfg #104] bus=0 dev=1 func=3 off=0x1C size=4 write=0 val=0x0 cfg=present
[pcicfg #105] bus=0 dev=1 func=3 off=0x20 size=4 write=0 val=0x0 cfg=present
[pcicfg #106] bus=0 dev=1 func=3 off=0x24 size=4 write=0 val=0x0 cfg=present
[pcicfg #107] bus=0 dev=1 func=3 off=0x28 size=4 write=0 val=0x0 cfg=present
[pcicfg #108] bus=0 dev=1 func=3 off=0x2C size=4 write=0 val=0x0 cfg=present
[pcicfg #109] bus=0 dev=1 func=3 off=0x30 size=4 write=0 val=0x0 cfg=present
[pcicfg #110] bus=0 dev=1 func=3 off=0x34 size=4 write=0 val=0x0 cfg=present
[pcicfg #111] bus=0 dev=1 func=3 off=0x38 size=4 write=0 val=0x0 cfg=present
[pcicfg #112] bus=0 dev=1 func=3 off=0x3C size=4 write=0 val=0x0 cfg=present
[pcicfg #113] bus=0 dev=1 func=4 off=0x00 size=4 write=0 val=0xFFFFFFFF cfg=absent
[pcicfg #114] bus=0 dev=1 func=5 off=0x00 size=4 write=0 val=0xFFFFFFFF cfg=absent
[pcicfg #115] bus=0 dev=1 func=6 off=0x00 size=4 write=0 val=0xFFFFFFFF cfg=absent
[pcicfg #116] bus=0 dev=1 func=7 off=0x00 size=4 write=0 val=0xFFFFFFFF cfg=absent
[pcicfg #117] bus=0 dev=2 func=0 off=0x00 size=4 write=0 val=0x29228086 cfg=present
[pcicfg #118] bus=0 dev=2 func=0 off=0x00 size=4 write=0 val=0x29228086 cfg=present
[pcicfg #119] bus=0 dev=2 func=0 off=0x04 size=4 write=0 val=0x0 cfg=present
[pcicfg #120] bus=0 dev=2 func=0 off=0x08 size=4 write=0 val=0x1060102 cfg=present
[pcicfg #121] bus=0 dev=2 func=0 off=0x0C size=4 write=0 val=0x0 cfg=present
[pcicfg #122] bus=0 dev=2 func=0 off=0x10 size=4 write=0 val=0x0 cfg=present
[pcicfg #123] bus=0 dev=2 func=0 off=0x14 size=4 write=0 val=0x0 cfg=present
[pcicfg #124] bus=0 dev=2 func=0 off=0x18 size=4 write=0 val=0x0 cfg=present
[pcicfg #125] bus=0 dev=2 func=0 off=0x1C size=4 write=0 val=0x0 cfg=present
[pcicfg #126] bus=0 dev=2 func=0 off=0x20 size=4 write=0 val=0x0 cfg=present
[pcicfg #127] bus=0 dev=2 func=0 off=0x24 size=4 write=0 val=0x0 cfg=present
[pcicfg #128] bus=0 dev=2 func=0 off=0x28 size=4 write=0 val=0x0 cfg=present
[pcicfg #129] bus=0 dev=2 func=0 off=0x2C size=4 write=0 val=0x0 cfg=present
[pcicfg #130] bus=0 dev=2 func=0 off=0x30 size=4 write=0 val=0x0 cfg=present
[pcicfg #131] bus=0 dev=2 func=0 off=0x34 size=4 write=0 val=0x0 cfg=present
[pcicfg #132] bus=0 dev=2 func=0 off=0x38 size=4 write=0 val=0x0 cfg=present
[pcicfg #133] bus=0 dev=2 func=0 off=0x3C size=4 write=0 val=0x100 cfg=present
[pcicfg #134] bus=0 dev=3 func=0 off=0x00 size=4 write=0 val=0x813910EC cfg=present
[pcicfg #135] bus=0 dev=3 func=0 off=0x00 size=4 write=0 val=0x813910EC cfg=present
[pcicfg #136] bus=0 dev=3 func=0 off=0x04 size=4 write=0 val=0x0 cfg=present
[pcicfg #137] bus=0 dev=3 func=0 off=0x08 size=4 write=0 val=0x2000010 cfg=present
[pcicfg #138] bus=0 dev=3 func=0 off=0x0C size=4 write=0 val=0x0 cfg=present
[pcicfg #139] bus=0 dev=3 func=0 off=0x10 size=4 write=0 val=0x0 cfg=present
[pcicfg #140] bus=0 dev=3 func=0 off=0x14 size=4 write=0 val=0x0 cfg=present
[pcicfg #141] bus=0 dev=3 func=0 off=0x18 size=4 write=0 val=0x0 cfg=present
[pcicfg #142] bus=0 dev=3 func=0 off=0x1C size=4 write=0 val=0x0 cfg=present
[pcicfg #143] bus=0 dev=3 func=0 off=0x20 size=4 write=0 val=0x0 cfg=present
[pcicfg #144] bus=0 dev=3 func=0 off=0x24 size=4 write=0 val=0x0 cfg=present
[pcicfg #145] bus=0 dev=3 func=0 off=0x28 size=4 write=0 val=0x0 cfg=present
[pcicfg #146] bus=0 dev=3 func=0 off=0x2C size=4 write=0 val=0x0 cfg=present
[pcicfg #147] bus=0 dev=3 func=0 off=0x30 size=4 write=0 val=0x0 cfg=present
[pcicfg #148] bus=0 dev=3 func=0 off=0x34 size=4 write=0 val=0x0 cfg=present
[pcicfg #149] bus=0 dev=3 func=0 off=0x38 size=4 write=0 val=0x0 cfg=present
[pcicfg #150] bus=0 dev=3 func=0 off=0x3C size=4 write=0 val=0x100 cfg=present
[pcicfg #151] bus=0 dev=4 func=0 off=0x00 size=4 write=0 val=0xFFFFFFFF cfg=absent
[pcicfg #152] bus=0 dev=5 func=0 off=0x00 size=4 write=0 val=0xFFFFFFFF cfg=absent
[pcicfg #153] bus=0 dev=6 func=0 off=0x00 size=4 write=0 val=0xFFFFFFFF cfg=absent
[pcicfg #154] bus=0 dev=7 func=0 off=0x00 size=4 write=0 val=0xFFFFFFFF cfg=absent
[pcicfg #155] bus=0 dev=8 func=0 off=0x00 size=4 write=0 val=0xFFFFFFFF cfg=absent
[pcicfg #156] bus=0 dev=9 func=0 off=0x00 size=4 write=0 val=0xFFFFFFFF cfg=absent
[pcicfg #157] bus=0 dev=10 func=0 off=0x00 size=4 write=0 val=0xFFFFFFFF cfg=absent
[pcicfg #158] bus=0 dev=11 func=0 off=0x00 size=4 write=0 val=0xFFFFFFFF cfg=absent
[pcicfg #159] bus=0 dev=12 func=0 off=0x00 size=4 write=0 val=0xFFFFFFFF cfg=absent
[pcicfg #160] bus=0 dev=13 func=0 off=0x00 size=4 write=0 val=0xFFFFFFFF cfg=absent
[pcicfg #161] bus=0 dev=14 func=0 off=0x00 size=4 write=0 val=0xFFFFFFFF cfg=absent
[pcicfg #162] bus=0 dev=15 func=0 off=0x00 size=4 write=0 val=0xFFFFFFFF cfg=absent
[pcicfg #163] bus=0 dev=16 func=0 off=0x00 size=4 write=0 val=0xFFFFFFFF cfg=absent
[pcicfg #164] bus=0 dev=17 func=0 off=0x00 size=4 write=0 val=0xFFFFFFFF cfg=absent
[pcicfg #165] bus=0 dev=18 func=0 off=0x00 size=4 write=0 val=0xFFFFFFFF cfg=absent
[pcicfg #166] bus=0 dev=19 func=0 off=0x00 size=4 write=0 val=0xFFFFFFFF cfg=absent
[pcicfg #167] bus=0 dev=20 func=0 off=0x00 size=4 write=0 val=0xFFFFFFFF cfg=absent
[pcicfg #168] bus=0 dev=21 func=0 off=0x00 size=4 write=0 val=0xFFFFFFFF cfg=absent
[pcicfg #169] bus=0 dev=22 func=0 off=0x00 size=4 write=0 val=0xFFFFFFFF cfg=absent
[pcicfg #170] bus=0 dev=23 func=0 off=0x00 size=4 write=0 val=0xFFFFFFFF cfg=absent
[pcicfg #171] bus=0 dev=24 func=0 off=0x00 size=4 write=0 val=0xFFFFFFFF cfg=absent
[pcicfg #172] bus=0 dev=25 func=0 off=0x00 size=4 write=0 val=0xFFFFFFFF cfg=absent
[pcicfg #173] bus=0 dev=26 func=0 off=0x00 size=4 write=0 val=0xFFFFFFFF cfg=absent
[pcicfg #174] bus=0 dev=27 func=0 off=0x00 size=4 write=0 val=0xFFFFFFFF cfg=absent
[pcicfg #175] bus=0 dev=28 func=0 off=0x00 size=4 write=0 val=0xFFFFFFFF cfg=absent
[pcicfg #176] bus=0 dev=29 func=0 off=0x00 size=4 write=0 val=0xFFFFFFFF cfg=absent
[pcicfg #177] bus=0 dev=30 func=0 off=0x00 size=4 write=0 val=0xFFFFFFFF cfg=absent
[pcicfg #178] bus=0 dev=31 func=0 off=0x00 size=4 write=0 val=0xFFFFFFFF cfg=absent
[pcicfg #179] bus=0 dev=0 func=0 off=0x00 size=4 write=0 val=0x12378086 cfg=present
[pcicfg #180] bus=0 dev=0 func=0 off=0x00 size=4 write=0 val=0x12378086 cfg=present
[pcicfg #181] bus=0 dev=0 func=0 off=0x04 size=4 write=0 val=0x0 cfg=present
[pcicfg #182] bus=0 dev=0 func=0 off=0x08 size=4 write=0 val=0x6000002 cfg=present
[pcicfg #183] bus=0 dev=0 func=0 off=0x0C size=4 write=0 val=0x0 cfg=present
[pcicfg #184] bus=0 dev=0 func=0 off=0x10 size=4 write=0 val=0x0 cfg=present
[pcicfg #185] bus=0 dev=0 func=0 off=0x14 size=4 write=0 val=0x0 cfg=present
[pcicfg #186] bus=0 dev=0 func=0 off=0x18 size=4 write=0 val=0x0 cfg=present
[pcicfg #187] bus=0 dev=0 func=0 off=0x1C size=4 write=0 val=0x0 cfg=present
[pcicfg #188] bus=0 dev=0 func=0 off=0x20 size=4 write=0 val=0x0 cfg=present
[pcicfg #189] bus=0 dev=0 func=0 off=0x24 size=4 write=0 val=0x0 cfg=present
[pcicfg #190] bus=0 dev=0 func=0 off=0x28 size=4 write=0 val=0x0 cfg=present
[pcicfg #191] bus=0 dev=0 func=0 off=0x2C size=4 write=0 val=0x0 cfg=present
[pcicfg #192] bus=0 dev=0 func=0 off=0x30 size=4 write=0 val=0x0 cfg=present
[pcicfg #193] bus=0 dev=0 func=0 off=0x34 size=4 write=0 val=0x0 cfg=present
[pcicfg #194] bus=0 dev=0 func=0 off=0x38 size=4 write=0 val=0x0 cfg=present
[pcicfg #195] bus=0 dev=0 func=0 off=0x3C size=4 write=0 val=0x0 cfg=present
[pcicfg #196] bus=0 dev=0 func=0 off=0x04 size=2 write=0 val=0x0 cfg=present
[pcicfg #197] bus=0 dev=0 func=0 off=0x04 size=2 write=1 val=0x0 cfg=present
[pcicfg #198] bus=0 dev=0 func=0 off=0x10 size=4 write=0 val=0x0 cfg=present
[pcicfg #199] bus=0 dev=0 func=0 off=0x10 size=4 write=1 val=0xFFFFFFFF cfg=present
[pcicfg #200] bus=0 dev=0 func=0 off=0x10 size=4 write=0 val=0x0 cfg=present
[pcicfg #201] bus=0 dev=0 func=0 off=0x10 size=4 write=1 val=0x0 cfg=present
[pcicfg #202] bus=0 dev=0 func=0 off=0x14 size=4 write=0 val=0x0 cfg=present
[pcicfg #203] bus=0 dev=0 func=0 off=0x14 size=4 write=1 val=0xFFFFFFFF cfg=present
[pcicfg #204] bus=0 dev=0 func=0 off=0x14 size=4 write=0 val=0x0 cfg=present
[pcicfg #205] bus=0 dev=0 func=0 off=0x14 size=4 write=1 val=0x0 cfg=present
[pcicfg #206] bus=0 dev=0 func=0 off=0x18 size=4 write=0 val=0x0 cfg=present
[pcicfg #207] bus=0 dev=0 func=0 off=0x18 size=4 write=1 val=0xFFFFFFFF cfg=present
[pcicfg #208] bus=0 dev=0 func=0 off=0x18 size=4 write=0 val=0x0 cfg=present
[pcicfg #209] bus=0 dev=0 func=0 off=0x18 size=4 write=1 val=0x0 cfg=present
[pcicfg #210] bus=0 dev=0 func=0 off=0x1C size=4 write=0 val=0x0 cfg=present
[pcicfg #211] bus=0 dev=0 func=0 off=0x1C size=4 write=1 val=0xFFFFFFFF cfg=present
[pcicfg #212] bus=0 dev=0 func=0 off=0x1C size=4 write=0 val=0x0 cfg=present
[pcicfg #213] bus=0 dev=0 func=0 off=0x1C size=4 write=1 val=0x0 cfg=present
[pcicfg #214] bus=0 dev=0 func=0 off=0x20 size=4 write=0 val=0x0 cfg=present
[pcicfg #215] bus=0 dev=0 func=0 off=0x20 size=4 write=1 val=0xFFFFFFFF cfg=present
[pcicfg #216] bus=0 dev=0 func=0 off=0x20 size=4 write=0 val=0x0 cfg=present
[pcicfg #217] bus=0 dev=0 func=0 off=0x20 size=4 write=1 val=0x0 cfg=present
[pcicfg #218] bus=0 dev=0 func=0 off=0x24 size=4 write=0 val=0x0 cfg=present
[pcicfg #219] bus=0 dev=0 func=0 off=0x24 size=4 write=1 val=0xFFFFFFFF cfg=present
[pcicfg #220] bus=0 dev=0 func=0 off=0x24 size=4 write=0 val=0x0 cfg=present
[pcicfg #221] bus=0 dev=0 func=0 off=0x24 size=4 write=1 val=0x0 cfg=present
[pcicfg #222] bus=0 dev=0 func=0 off=0x30 size=4 write=1 val=0xFFFFFFFE cfg=present
[pcicfg #223] bus=0 dev=0 func=0 off=0x30 size=4 write=0 val=0x0 cfg=present
[pcicfg #224] bus=0 dev=1 func=0 off=0x00 size=4 write=0 val=0x70008086 cfg=present
[pcicfg #225] bus=0 dev=1 func=0 off=0x00 size=4 write=0 val=0x70008086 cfg=present
[pcicfg #226] bus=0 dev=1 func=0 off=0x04 size=4 write=0 val=0x0 cfg=present
[pcicfg #227] bus=0 dev=1 func=0 off=0x08 size=4 write=0 val=0x6010000 cfg=present
[pcicfg #228] bus=0 dev=1 func=0 off=0x0C size=4 write=0 val=0x800000 cfg=present
[pcicfg #229] bus=0 dev=1 func=0 off=0x10 size=4 write=0 val=0x0 cfg=present
[pcicfg #230] bus=0 dev=1 func=0 off=0x14 size=4 write=0 val=0x0 cfg=present
[pcicfg #231] bus=0 dev=1 func=0 off=0x18 size=4 write=0 val=0x0 cfg=present
[pcicfg #232] bus=0 dev=1 func=0 off=0x1C size=4 write=0 val=0x0 cfg=present
[pcicfg #233] bus=0 dev=1 func=0 off=0x20 size=4 write=0 val=0x0 cfg=present
[pcicfg #234] bus=0 dev=1 func=0 off=0x24 size=4 write=0 val=0x0 cfg=present
[pcicfg #235] bus=0 dev=1 func=0 off=0x28 size=4 write=0 val=0x0 cfg=present
[pcicfg #236] bus=0 dev=1 func=0 off=0x2C size=4 write=0 val=0x0 cfg=present
[pcicfg #237] bus=0 dev=1 func=0 off=0x30 size=4 write=0 val=0x0 cfg=present
[pcicfg #238] bus=0 dev=1 func=0 off=0x34 size=4 write=0 val=0x0 cfg=present
[pcicfg #239] bus=0 dev=1 func=0 off=0x38 size=4 write=0 val=0x0 cfg=present
[pcicfg #240] bus=0 dev=1 func=0 off=0x3C size=4 write=0 val=0x0 cfg=present
[pcicfg #241] bus=0 dev=1 func=0 off=0x04 size=2 write=0 val=0x0 cfg=present
[pcicfg #242] bus=0 dev=1 func=0 off=0x04 size=2 write=1 val=0x0 cfg=present
[pcicfg #243] bus=0 dev=1 func=0 off=0x10 size=4 write=0 val=0x0 cfg=present
[pcicfg #244] bus=0 dev=1 func=0 off=0x10 size=4 write=1 val=0xFFFFFFFF cfg=present
[pcicfg #245] bus=0 dev=1 func=0 off=0x10 size=4 write=0 val=0x0 cfg=present
[pcicfg #246] bus=0 dev=1 func=0 off=0x10 size=4 write=1 val=0x0 cfg=present
[pcicfg #247] bus=0 dev=1 func=0 off=0x14 size=4 write=0 val=0x0 cfg=present
[pcicfg #248] bus=0 dev=1 func=0 off=0x14 size=4 write=1 val=0xFFFFFFFF cfg=present
[pcicfg #249] bus=0 dev=1 func=0 off=0x14 size=4 write=0 val=0x0 cfg=present
[pcicfg #250] bus=0 dev=1 func=0 off=0x14 size=4 write=1 val=0x0 cfg=present
[pcicfg #251] bus=0 dev=1 func=0 off=0x18 size=4 write=0 val=0x0 cfg=present
[pcicfg #252] bus=0 dev=1 func=0 off=0x18 size=4 write=1 val=0xFFFFFFFF cfg=present
[pcicfg #253] bus=0 dev=1 func=0 off=0x18 size=4 write=0 val=0x0 cfg=present
[pcicfg #254] bus=0 dev=1 func=0 off=0x18 size=4 write=1 val=0x0 cfg=present
[pcicfg #255] bus=0 dev=1 func=0 off=0x1C size=4 write=0 val=0x0 cfg=present
[pcicfg #256] bus=0 dev=1 func=0 off=0x1C size=4 write=1 val=0xFFFFFFFF cfg=present
[pcicfg #257] bus=0 dev=1 func=0 off=0x1C size=4 write=0 val=0x0 cfg=present
[pcicfg #258] bus=0 dev=1 func=0 off=0x1C size=4 write=1 val=0x0 cfg=present
[pcicfg #259] bus=0 dev=1 func=0 off=0x20 size=4 write=0 val=0x0 cfg=present
[pcicfg #260] bus=0 dev=1 func=0 off=0x20 size=4 write=1 val=0xFFFFFFFF cfg=present
[pcicfg #261] bus=0 dev=1 func=0 off=0x20 size=4 write=0 val=0x0 cfg=present
[pcicfg #262] bus=0 dev=1 func=0 off=0x20 size=4 write=1 val=0x0 cfg=present
[pcicfg #263] bus=0 dev=1 func=0 off=0x24 size=4 write=0 val=0x0 cfg=present
[pcicfg #264] bus=0 dev=1 func=0 off=0x24 size=4 write=1 val=0xFFFFFFFF cfg=present
[pcicfg #265] bus=0 dev=1 func=0 off=0x24 size=4 write=0 val=0x0 cfg=present
[pcicfg #266] bus=0 dev=1 func=0 off=0x24 size=4 write=1 val=0x0 cfg=present
[pcicfg #267] bus=0 dev=1 func=0 off=0x30 size=4 write=1 val=0xFFFFFFFE cfg=present
[pcicfg #268] bus=0 dev=1 func=0 off=0x30 size=4 write=0 val=0x0 cfg=present
[pcicfg #269] bus=0 dev=1 func=1 off=0x00 size=4 write=0 val=0xFFFFFFFF cfg=absent
[pcicfg #270] bus=0 dev=1 func=2 off=0x00 size=4 write=0 val=0xFFFFFFFF cfg=absent
[pcicfg #271] bus=0 dev=1 func=3 off=0x00 size=4 write=0 val=0x71138086 cfg=present
[pcicfg #272] bus=0 dev=1 func=3 off=0x00 size=4 write=0 val=0x71138086 cfg=present
[pcicfg #273] bus=0 dev=1 func=3 off=0x04 size=4 write=0 val=0x0 cfg=present
[pcicfg #274] bus=0 dev=1 func=3 off=0x08 size=4 write=0 val=0x6800000 cfg=present
[pcicfg #275] bus=0 dev=1 func=3 off=0x0C size=4 write=0 val=0x0 cfg=present
[pcicfg #276] bus=0 dev=1 func=3 off=0x10 size=4 write=0 val=0x0 cfg=present
[pcicfg #277] bus=0 dev=1 func=3 off=0x14 size=4 write=0 val=0x0 cfg=present
[pcicfg #278] bus=0 dev=1 func=3 off=0x18 size=4 write=0 val=0x0 cfg=present
[pcicfg #279] bus=0 dev=1 func=3 off=0x1C size=4 write=0 val=0x0 cfg=present
[pcicfg #280] bus=0 dev=1 func=3 off=0x20 size=4 write=0 val=0x0 cfg=present
[pcicfg #281] bus=0 dev=1 func=3 off=0x24 size=4 write=0 val=0x0 cfg=present
[pcicfg #282] bus=0 dev=1 func=3 off=0x28 size=4 write=0 val=0x0 cfg=present
[pcicfg #283] bus=0 dev=1 func=3 off=0x2C size=4 write=0 val=0x0 cfg=present
[pcicfg #284] bus=0 dev=1 func=3 off=0x30 size=4 write=0 val=0x0 cfg=present
[pcicfg #285] bus=0 dev=1 func=3 off=0x34 size=4 write=0 val=0x0 cfg=present
[pcicfg #286] bus=0 dev=1 func=3 off=0x38 size=4 write=0 val=0x0 cfg=present
[pcicfg #287] bus=0 dev=1 func=3 off=0x3C size=4 write=0 val=0x0 cfg=present
[pcicfg #288] bus=0 dev=1 func=3 off=0x04 size=2 write=0 val=0x0 cfg=present
[pcicfg #289] bus=0 dev=1 func=3 off=0x04 size=2 write=1 val=0x0 cfg=present
[pcicfg #290] bus=0 dev=1 func=3 off=0x10 size=4 write=0 val=0x0 cfg=present
[pcicfg #291] bus=0 dev=1 func=3 off=0x10 size=4 write=1 val=0xFFFFFFFF cfg=present
[pcicfg #292] bus=0 dev=1 func=3 off=0x10 size=4 write=0 val=0x0 cfg=present
[pcicfg #293] bus=0 dev=1 func=3 off=0x10 size=4 write=1 val=0x0 cfg=present
[pcicfg #294] bus=0 dev=1 func=3 off=0x14 size=4 write=0 val=0x0 cfg=present
[pcicfg #295] bus=0 dev=1 func=3 off=0x14 size=4 write=1 val=0xFFFFFFFF cfg=present
[pcicfg #296] bus=0 dev=1 func=3 off=0x14 size=4 write=0 val=0x0 cfg=present
[pcicfg #297] bus=0 dev=1 func=3 off=0x14 size=4 write=1 val=0x0 cfg=present
[pcicfg #298] bus=0 dev=1 func=3 off=0x18 size=4 write=0 val=0x0 cfg=present
[pcicfg #299] bus=0 dev=1 func=3 off=0x18 size=4 write=1 val=0xFFFFFFFF cfg=present
[pcicfg #300] bus=0 dev=1 func=3 off=0x18 size=4 write=0 val=0x0 cfg=present
[heartbeat: exitCount=10000 elapsedSec=0.3 lastPort=0xCF8 write=1 val=0x89 rip=0xBF14EA80 (not in ntoskrnl) irql=0]
[heartbeat]   totals: pciCfgAccesses=610 ahciCmds=0 (reads=0 writes=0 other=0)
[rtl8139] I/O BAR mapped at 0xC000
[ahci] ABAR mapped at 0xC0000000 (WHvMapGpaRange hr=0x0 OK)
[fwcfg] select #21: selector=0x22
[acpi] acpiBuildTables() firing -- pmBase=0xB000
[acpi] table-loader: 17 commands, 2176/4096 bytes used
[fwcfg] select #22: selector=0x20
[fwcfg] select #23: selector=0x21
[2J[001;001H[=3h[2J[001;001H[2J[001;001H[8;056;240t[2J[001;001H[uart2] #1 port=0x2FF write=0 val=0x0
[uart2] #2 port=0x2FF write=1 val=0xAA
[uart2] #3 port=0x2FF write=0 val=0x0
[uart2] #4 port=0x2FF write=1 val=0x55
[uart2] #5 port=0x2FF write=0 val=0x0
[uart2] #6 port=0x2FF write=1 val=0x0
[uart2] #7 port=0x2FD write=0 val=0x0
[uart2] #8 port=0x2FB write=0 val=0x0
[uart2] #9 port=0x2FB write=1 val=0x0
[uart2] #10 port=0x2F9 write=0 val=0x0
[uart2] #11 port=0x2F9 write=1 val=0x0
[uart2] #12 port=0x2FA write=1 val=0x0
[uart2] #13 port=0x2FC write=0 val=0x0
[uart2] #14 port=0x2FC write=1 val=0x0
[uart2] #15 port=0x2FF write=1 val=0x0
[uart2] #16 port=0x2FA write=1 val=0x7
[uart2] #17 port=0x2FD write=0 val=0x0
[uart2] #18 port=0x2FB write=0 val=0x0
[uart2] #19 port=0x2FB write=1 val=0x80
[uart2] #20 port=0x2F8 write=1 val=0x1
[uart2] #21 port=0x2F9 write=1 val=0x0
[uart2] #22 port=0x2FB write=1 val=0x3
[uart2] #23 port=0x2FD write=0 val=0x0
[uart2] #24 port=0x2FC write=0 val=0x0
[uart2] #25 port=0x2FC write=1 val=0x0
[uart2] #26 port=0x2FD write=0 val=0x0
[uart2] #27 port=0x2FB write=0 val=0x0
[uart2] #28 port=0x2FB write=1 val=0x83
[uart2] #29 port=0x2F8 write=1 val=0x1
[uart2] #30 port=0x2F9 write=1 val=0x0
[uart2] #31 port=0x2FB write=1 val=0x3
[uart2] #32 port=0x2FD write=0 val=0x0
[uart2] #33 port=0x2F8 write=1 val=0x1B
[uart2] #34 port=0x2FD write=0 val=0x0
[uart2] #35 port=0x2F8 write=1 val=0x5B
[uart2] #36 port=0x2FD write=0 val=0x0
[uart2] #37 port=0x2F8 write=1 val=0x32
[uart2] #38 port=0x2FD write=0 val=0x0
[uart2] #39 port=0x2F8 write=1 val=0x4A
[uart2] #40 port=0x2FD write=0 val=0x0
[2J[001;001H[=3h[2J[001;001H[2J[001;001H[8;031;100t[2J[001;001H[heartbeat: exitCount=15000 elapsedSec=0.5 lastPort=0xB008 write=0 val=0x20 rip=0xBE41CC4C (not in ntoskrnl) irql=0]
[heartbeat]   totals: pciCfgAccesses=1487 ahciCmds=0 (reads=0 writes=0 other=0)
[heartbeat: exitCount=20000 elapsedSec=0.5 lastPort=0xB008 write=0 val=0x20 rip=0xBE41CC4C (not in ntoskrnl) irql=0]
[heartbeat]   totals: pciCfgAccesses=1487 ahciCmds=0 (reads=0 writes=0 other=0)
[aux] controller: disable AUX port
[heartbeat: exitCount=25000 elapsedSec=0.6 lastPort=0xCFC write=0 val=0x0 rip=0xBF14E7F9 (not in ntoskrnl) irql=0]
[heartbeat]   totals: pciCfgAccesses=1511 ahciCmds=0 (reads=0 writes=0 other=0)
[ahci] GHC.AE set -- controller enabled
[ahci] PxCMD.ST set -- port 0 started
[ahci] cmd #1: ataCmd=0xEC lba=0 count=1 prdtl=1
[ahci] cmd #2: ataCmd=0xEF lba=0 count=1 prdtl=0
[ahci] cmd #3: ataCmd=0xEC lba=0 count=256 prdtl=1
[ahci] cmd #4: ataCmd=0x20 lba=0 count=1 prdtl=1
[ahci] cmd #5: ataCmd=0x20 lba=1 count=1 prdtl=1
[ahci] cmd #6: ataCmd=0x20 lba=2 count=32 prdtl=1
[ahci] cmd #7: ataCmd=0x20 lba=16777215 count=1 prdtl=1
[ahci] cmd #8: ataCmd=0x20 lba=16777183 count=32 prdtl=1
[ahci] cmd #9: ataCmd=0x20 lba=2 count=32 prdtl=1
[ahci] cmd #10: ataCmd=0x20 lba=34 count=1 prdtl=1
[ahci] cmd #11: ataCmd=0x20 lba=98 count=4 prdtl=1
[ahci] cmd #12: ataCmd=0x20 lba=98 count=1 prdtl=1
[ahci] cmd #13: ataCmd=0x20 lba=34 count=1 prdtl=1
[ahci] cmd #14: ataCmd=0x20 lba=34 count=1 prdtl=1
[ahci] cmd #15: ataCmd=0x20 lba=32768 count=1 prdtl=1
[ahci] cmd #16: ataCmd=0x20 lba=32832 count=4 prdtl=1
[ahci] cmd #17: ataCmd=0x20 lba=32832 count=1 prdtl=1
[ahci] cmd #18: ataCmd=0x20 lba=32768 count=1 prdtl=1
[ahci] cmd #19: ataCmd=0x20 lba=32768 count=1 prdtl=1
[ahci] cmd #20: ataCmd=0x20 lba=33598 count=1 prdtl=1
[ahci] cmd #21: ataCmd=0x20 lba=32769 count=1 prdtl=1
[ahci] cmd #22: ataCmd=0x20 lba=0 count=1 prdtl=1
[ahci] cmd #23: ataCmd=0x20 lba=1 count=1 prdtl=1
[ahci] cmd #24: ataCmd=0x20 lba=2 count=32 prdtl=1
[ahci] cmd #25: ataCmd=0x20 lba=16777215 count=1 prdtl=1
[ahci] cmd #26: ataCmd=0x20 lba=16777183 count=32 prdtl=1
[ahci] cmd #27: ataCmd=0x20 lba=2 count=32 prdtl=1
[ahci] cmd #28: ataCmd=0x20 lba=34 count=1 prdtl=1
[ahci] cmd #29: ataCmd=0x20 lba=98 count=4 prdtl=1
[ahci] cmd #30: ataCmd=0x20 lba=98 count=1 prdtl=1
[ahci] cmd #31: ataCmd=0x20 lba=34 count=1 prdtl=1
[ahci] cmd #32: ataCmd=0x20 lba=34 count=1 prdtl=1
[heartbeat: exitCount=30000 elapsedSec=0.7 lastPort=0xCFC write=0 val=0x0 rip=0xBF14E7F9 (not in ntoskrnl) irql=0]
[heartbeat]   totals: pciCfgAccesses=2598 ahciCmds=32 (reads=29 writes=0 other=3)
[ahci] cmd #33: ataCmd=0x20 lba=0 count=1 prdtl=1
[ahci] cmd #34: ataCmd=0x20 lba=1 count=1 prdtl=1
[ahci] cmd #35: ataCmd=0x20 lba=2 count=32 prdtl=1
[ahci] cmd #36: ataCmd=0x20 lba=16777215 count=1 prdtl=1
[ahci] cmd #37: ataCmd=0x20 lba=16777183 count=32 prdtl=1
[ahci] cmd #38: ataCmd=0x20 lba=2 count=32 prdtl=1
[ahci] cmd #39: ataCmd=0x20 lba=34 count=1 prdtl=1
[ahci] cmd #40: ataCmd=0x20 lba=98 count=4 prdtl=1
[ahci] cmd #41: ataCmd=0x20 lba=98 count=1 prdtl=1
[ahci] cmd #42: ataCmd=0x20 lba=34 count=1 prdtl=1
[ahci] cmd #43: ataCmd=0x20 lba=34 count=1 prdtl=1
[ahci] cmd #44: ataCmd=0x20 lba=0 count=1 prdtl=1
[ahci] cmd #45: ataCmd=0x20 lba=1 count=1 prdtl=1
[ahci] cmd #46: ataCmd=0x20 lba=2 count=32 prdtl=1
[ahci] cmd #47: ataCmd=0x20 lba=16777215 count=1 prdtl=1
[ahci] cmd #48: ataCmd=0x20 lba=16777183 count=32 prdtl=1
[ahci] cmd #49: ataCmd=0x20 lba=2 count=32 prdtl=1
[ahci] cmd #50: ataCmd=0x20 lba=34 count=1 prdtl=1
[ahci] cmd #51: ataCmd=0x20 lba=98 count=4 prdtl=1
[ahci] cmd #52: ataCmd=0x20 lba=98 count=1 prdtl=1
[ahci] cmd #53: ataCmd=0x20 lba=34 count=1 prdtl=1
[ahci] cmd #54: ataCmd=0x20 lba=34 count=1 prdtl=1
[ahci] cmd #55: ataCmd=0x20 lba=34 count=1 prdtl=1
[ahci] cmd #56: ataCmd=0x20 lba=98 count=4 prdtl=1
[ahci] cmd #57: ataCmd=0x20 lba=98 count=1 prdtl=1
[ahci] cmd #58: ataCmd=0x20 lba=34 count=1 prdtl=1
[ahci] cmd #59: ataCmd=0x20 lba=34 count=1 prdtl=1
[ahci] cmd #60: ataCmd=0x20 lba=0 count=1 prdtl=1
[ahci] cmd #61: ataCmd=0x20 lba=1 count=1 prdtl=1
[ahci] cmd #62: ataCmd=0x20 lba=2 count=32 prdtl=1
[ahci] cmd #63: ataCmd=0x20 lba=16777215 count=1 prdtl=1
[ahci] cmd #64: ataCmd=0x20 lba=16777183 count=32 prdtl=1
[ahci] cmd #65: ataCmd=0x20 lba=2 count=32 prdtl=1
[ahci] cmd #66: ataCmd=0x20 lba=34 count=1 prdtl=1
[ahci] cmd #67: ataCmd=0x20 lba=98 count=4 prdtl=1
[ahci] cmd #68: ataCmd=0x20 lba=98 count=1 prdtl=1
[ahci] cmd #69: ataCmd=0x20 lba=34 count=1 prdtl=1
[ahci] cmd #70: ataCmd=0x20 lba=34 count=1 prdtl=1
[ahci] cmd #71: ataCmd=0x20 lba=0 count=1 prdtl=1
[ahci] cmd #72: ataCmd=0x20 lba=33598 count=64 prdtl=1
[ahci] cmd #73: ataCmd=0x20 lba=65536 count=128 prdtl=1
[ahci] cmd #74: ataCmd=0x20 lba=69504 count=128 prdtl=1
[ahci] cmd #75: ataCmd=0x20 lba=69632 count=128 prdtl=1
[ahci] cmd #76: ataCmd=0x20 lba=42814 count=64 prdtl=1
[ahci] cmd #77: ataCmd=0x20 lba=9560960 count=128 prdtl=1
[ahci] cmd #78: ataCmd=0x20 lba=9561088 count=256 prdtl=1
[ahci] cmd #79: ataCmd=0x20 lba=9561344 count=256 prdtl=1
[ahci] cmd #80: ataCmd=0x20 lba=9561600 count=256 prdtl=1
[ahci] cmd #81: ataCmd=0x20 lba=9561856 count=256 prdtl=1
[ahci] cmd #82: ataCmd=0x20 lba=9562112 count=256 prdtl=1
[ahci] cmd #83: ataCmd=0x20 lba=9562368 count=256 prdtl=1
[ahci] cmd #84: ataCmd=0x20 lba=9562624 count=256 prdtl=1
[ahci] cmd #85: ataCmd=0x20 lba=9562880 count=256 prdtl=1
[ahci] cmd #86: ataCmd=0x20 lba=9563136 count=256 prdtl=1
[ahci] cmd #87: ataCmd=0x20 lba=9563392 count=256 prdtl=1
[ahci] cmd #88: ataCmd=0x20 lba=9563648 count=256 prdtl=1
[ahci] cmd #89: ataCmd=0x20 lba=9563904 count=128 prdtl=1
[ahci] cmd #90: ataCmd=0x20 lba=9564032 count=128 prdtl=1
BdsDxe: loading Boot0002 "UEFI LocalHost Virtual Disk LH0001 " from PciRoot(0x0)/Pci(0x2,0x0)/Sata(0x0,0xFFFF,0x0)
BdsDxe: starting Boot0002 "UEFI LocalHost Virtual Disk LH0001 " from PciRoot(0x0)/Pci(0x2,0x0)/Sata(0x0,0xFFFF,0x0)
[heartbeat: exitCount=35000 elapsedSec=0.9 lastPort=0xB008 write=0 val=0x2 rip=0xBF16B0DE (not in ntoskrnl) irql=0]
[heartbeat]   totals: pciCfgAccesses=3182 ahciCmds=90 (reads=87 writes=0 other=3)
[ahci] cmd #91: ataCmd=0x20 lba=0 count=1 prdtl=1
[ahci] cmd #92: ataCmd=0x20 lba=1 count=1 prdtl=1
[ahci] cmd #93: ataCmd=0x20 lba=1 count=1 prdtl=1
[ahci] cmd #94: ataCmd=0x20 lba=2 count=32 prdtl=1
[ahci] cmd #95: ataCmd=0x20 lba=0 count=1 prdtl=1
[ahci] cmd #96: ataCmd=0x20 lba=1 count=1 prdtl=1
[ahci] cmd #97: ataCmd=0x20 lba=1 count=1 prdtl=1
[ahci] cmd #98: ataCmd=0x20 lba=2 count=32 prdtl=1
[ahci] cmd #99: ataCmd=0x20 lba=32768 count=16 prdtl=1
[ahci] cmd #100: ataCmd=0x20 lba=0 count=1 prdtl=1
[ahci] cmd #101: ataCmd=0x20 lba=1 count=1 prdtl=1
[ahci] cmd #102: ataCmd=0x20 lba=2 count=32 prdtl=1
[ahci] cmd #103: ataCmd=0x20 lba=32768 count=64 prdtl=1
[ahci] cmd #104: ataCmd=0x20 lba=33536 count=64 prdtl=1
[ahci] cmd #105: ataCmd=0x20 lba=33600 count=64 prdtl=1
[ahci] cmd #106: ataCmd=0x20 lba=65536 count=64 prdtl=1
[ahci] cmd #107: ataCmd=0x20 lba=33601 count=4 prdtl=1
[ahci] cmd #108: ataCmd=0x20 lba=69568 count=64 prdtl=1
[ahci] cmd #109: ataCmd=0x20 lba=69632 count=64 prdtl=1
[ahci] cmd #110: ataCmd=0x20 lba=42874 count=4 prdtl=1
[ahci] cmd #111: ataCmd=0x20 lba=9564096 count=64 prdtl=1
[ahci] cmd #112: ataCmd=0x20 lba=33601 count=4 prdtl=1
[ahci] cmd #113: ataCmd=0x20 lba=42874 count=4 prdtl=1
[ahci] cmd #114: ataCmd=0x20 lba=43326 count=4 prdtl=1
[ahci] cmd #115: ataCmd=0x20 lba=10027016 count=40 prdtl=1
[ahci] cmd #116: ataCmd=0x20 lba=42874 count=4 prdtl=1
[ahci] cmd #117: ataCmd=0x20 lba=43056 count=4 prdtl=1
[ahci] cmd #118: ataCmd=0x20 lba=9750952 count=20 prdtl=1
[ahci] cmd #119: ataCmd=0x20 lba=42874 count=4 prdtl=1
[ahci] cmd #120: ataCmd=0x20 lba=33602 count=4 prdtl=1
[ahci] cmd #121: ataCmd=0x20 lba=42870 count=4 prdtl=1
[ahci] cmd #122: ataCmd=0x20 lba=42873 count=4 prdtl=1
[ahci] cmd #123: ataCmd=0x20 lba=9561000 count=256 prdtl=1
[ahci] cmd #124: ataCmd=0x20 lba=9561256 count=256 prdtl=1
[ahci] cmd #125: ataCmd=0x20 lba=9561512 count=256 prdtl=1
[ahci] cmd #126: ataCmd=0x20 lba=9561768 count=256 prdtl=1
[ahci] cmd #127: ataCmd=0x20 lba=9562024 count=256 prdtl=1
[ahci] cmd #128: ataCmd=0x20 lba=9562280 count=256 prdtl=1
[ahci] cmd #129: ataCmd=0x20 lba=9562536 count=256 prdtl=1
[ahci] cmd #130: ataCmd=0x20 lba=9562792 count=256 prdtl=1
[ahci] cmd #131: ataCmd=0x20 lba=9563048 count=256 prdtl=1
[ahci] cmd #132: ataCmd=0x20 lba=9563304 count=256 prdtl=1
[ahci] cmd #133: ataCmd=0x20 lba=9563560 count=256 prdtl=1
[ahci] cmd #134: ataCmd=0x20 lba=9563816 count=256 prdtl=1
[ahci] cmd #135: ataCmd=0x20 lba=9564072 count=35 prdtl=1
[ahci] cmd #136: ataCmd=0x20 lba=33598 count=4 prdtl=1
[ahci] cmd #137: ataCmd=0x20 lba=33602 count=4 prdtl=1
[ahci] cmd #138: ataCmd=0x20 lba=34622 count=4 prdtl=1
[ahci] cmd #139: ataCmd=0x20 lba=1114112 count=64 prdtl=1
[ahci] cmd #140: ataCmd=0x20 lba=42814 count=4 prdtl=1
[ahci] cmd #141: ataCmd=0x20 lba=9502720 count=64 prdtl=1
[ahci] cmd #142: ataCmd=0x20 lba=33602 count=4 prdtl=1
[ahci] cmd #143: ataCmd=0x20 lba=34622 count=4 prdtl=1
[ahci] cmd #144: ataCmd=0x20 lba=42814 count=4 prdtl=1
[ahci] cmd #145: ataCmd=0x20 lba=33602 count=4 prdtl=1
[ahci] cmd #146: ataCmd=0x20 lba=33598 count=4 prdtl=1
[ahci] cmd #147: ataCmd=0x20 lba=33601 count=4 prdtl=1
[ahci] cmd #148: ataCmd=0x20 lba=42874 count=4 prdtl=1
[ahci] cmd #149: ataCmd=0x20 lba=43059 count=4 prdtl=1
[ahci] cmd #150: ataCmd=0x20 lba=9754240 count=64 prdtl=1
[ahci] cmd #151: ataCmd=0x20 lba=43091 count=4 prdtl=1
[ahci] cmd #152: ataCmd=0x20 lba=9786872 count=1 prdtl=1
[ahci] cmd #153: ataCmd=0x20 lba=9786872 count=1 prdtl=1
[ahci] cmd #154: ataCmd=0x20 lba=9786872 count=1 prdtl=1
[ahci] cmd #155: ataCmd=0x20 lba=9786872 count=1 prdtl=1
[ahci] cmd #156: ataCmd=0x20 lba=9786872 count=1 prdtl=1
[ahci] cmd #157: ataCmd=0x20 lba=9786872 count=1 prdtl=1
[ahci] cmd #158: ataCmd=0x20 lba=9786872 count=7 prdtl=1
[ahci] cmd #159: ataCmd=0x20 lba=9786878 count=4 prdtl=1
[ahci] cmd #160: ataCmd=0x20 lba=9786881 count=1 prdtl=1
[ahci] cmd #161: ataCmd=0x20 lba=9786881 count=4 prdtl=1
[ahci] cmd #162: ataCmd=0x20 lba=9786884 count=137 prdtl=1
[ahci] cmd #163: ataCmd=0x20 lba=9787020 count=4 prdtl=1
[ahci] cmd #164: ataCmd=0x20 lba=9787023 count=1 prdtl=1
[ahci] cmd #165: ataCmd=0x20 lba=9787023 count=1 prdtl=1
[ahci] cmd #166: ataCmd=0x20 lba=9787023 count=16 prdtl=1
[ahci] cmd #167: ataCmd=0x20 lba=43059 count=4 prdtl=1
[ahci] cmd #168: ataCmd=0x20 lba=43090 count=4 prdtl=1
[ahci] cmd #169: ataCmd=0x20 lba=9786304 count=1 prdtl=1
[ahci] cmd #170: ataCmd=0x20 lba=9786304 count=1 prdtl=1
[ahci] cmd #171: ataCmd=0x20 lba=9786304 count=1 prdtl=1
[ahci] cmd #172: ataCmd=0x20 lba=9786304 count=1 prdtl=1
[ahci] cmd #173: ataCmd=0x20 lba=9786304 count=1 prdtl=1
[ahci] cmd #174: ataCmd=0x20 lba=9786304 count=1 prdtl=1
[ahci] cmd #175: ataCmd=0x20 lba=9786304 count=4 prdtl=1
[ahci] cmd #176: ataCmd=0x20 lba=9786307 count=2 prdtl=1
[ahci] cmd #177: ataCmd=0x20 lba=9786308 count=3 prdtl=1
[ahci] cmd #178: ataCmd=0x20 lba=9786310 count=63 prdtl=1
[ahci] cmd #179: ataCmd=0x20 lba=9786372 count=3 prdtl=1
[ahci] cmd #180: ataCmd=0x20 lba=9786374 count=1 prdtl=1
[ahci] cmd #181: ataCmd=0x20 lba=9786374 count=16 prdtl=1
[ahci] cmd #182: ataCmd=0x20 lba=43059 count=4 prdtl=1
[ahci] cmd #183: ataCmd=0x20 lba=43091 count=4 prdtl=1
[ahci] cmd #184: ataCmd=0x20 lba=9787040 count=1 prdtl=1
[ahci] cmd #185: ataCmd=0x20 lba=9787040 count=1 prdtl=1
[ahci] cmd #186: ataCmd=0x20 lba=9787040 count=1 prdtl=1
[ahci] cmd #187: ataCmd=0x20 lba=9787040 count=1 prdtl=1
[ahci] cmd #188: ataCmd=0x20 lba=9787040 count=1 prdtl=1
[ahci] cmd #189: ataCmd=0x20 lba=9787040 count=1 prdtl=1
[ahci] cmd #190: ataCmd=0x20 lba=9787040 count=7 prdtl=1
[ahci] cmd #191: ataCmd=0x20 lba=9787046 count=4 prdtl=1
[ahci] cmd #192: ataCmd=0x20 lba=9787049 count=3 prdtl=1
[ahci] cmd #193: ataCmd=0x20 lba=9787051 count=1 prdtl=1
[ahci] cmd #194: ataCmd=0x20 lba=9787051 count=3 prdtl=1
[ahci] cmd #195: ataCmd=0x20 lba=9787053 count=14 prdtl=1
[ahci] cmd #196: ataCmd=0x20 lba=9787066 count=48 prdtl=1
[ahci] cmd #197: ataCmd=0x20 lba=9787113 count=6 prdtl=1
[ahci] cmd #198: ataCmd=0x20 lba=9787118 count=15 prdtl=1
[ahci] cmd #199: ataCmd=0x20 lba=9787040 count=1 prdtl=1
[2J[001;001H[=3h[2J[001;001H[heartbeat: exitCount=40000 elapsedSec=1.1 lastPort=0xB008 write=0 val=0x89 rip=0xBEA03B02 (not in ntoskrnl) irql=0]
[heartbeat]   totals: pciCfgAccesses=3182 ahciCmds=315 (reads=312 writes=0 other=3)
[heartbeat: exitCount=45000 elapsedSec=1.3 lastPort=0xB008 write=0 val=0x89 rip=0xBEA03B02 (not in ntoskrnl) irql=0]
[heartbeat]   totals: pciCfgAccesses=3182 ahciCmds=549 (reads=546 writes=0 other=3)
[heartbeat: exitCount=50000 elapsedSec=1.4 lastPort=0xB008 write=0 val=0x89 rip=0xBEA03B02 (not in ntoskrnl) irql=0]
[heartbeat]   totals: pciCfgAccesses=3182 ahciCmds=810 (reads=807 writes=0 other=3)
[heartbeat: exitCount=55000 elapsedSec=1.5 lastPort=0xB008 write=0 val=0x89 rip=0xBEA03B02 (not in ntoskrnl) irql=0]
[heartbeat]   totals: pciCfgAccesses=3182 ahciCmds=1054 (reads=1051 writes=0 other=3)
[heartbeat: exitCount=60000 elapsedSec=1.7 lastPort=0xB008 write=0 val=0x89 rip=0xBEA03B02 (not in ntoskrnl) irql=0]
[heartbeat]   totals: pciCfgAccesses=3182 ahciCmds=1310 (reads=1307 writes=0 other=3)
[heartbeat: exitCount=65000 elapsedSec=1.8 lastPort=0xB008 write=0 val=0x89 rip=0xBEA03B02 (not in ntoskrnl) irql=0]
[heartbeat]   totals: pciCfgAccesses=3182 ahciCmds=1555 (reads=1552 writes=0 other=3)
[heartbeat: exitCount=70000 elapsedSec=1.9 lastPort=0xB008 write=0 val=0x89 rip=0xBEA03B02 (not in ntoskrnl) irql=0]
[heartbeat]   totals: pciCfgAccesses=3182 ahciCmds=1805 (reads=1802 writes=0 other=3)
[heartbeat: exitCount=75000 elapsedSec=2.0 lastPort=0xB008 write=0 val=0x89 rip=0xBEA03B02 (not in ntoskrnl) irql=0]
[heartbeat]   totals: pciCfgAccesses=3182 ahciCmds=2060 (reads=2057 writes=0 other=3)
[heartbeat: exitCount=80000 elapsedSec=2.2 lastPort=0xB008 write=0 val=0x89 rip=0xBEA03B02 (not in ntoskrnl) irql=0]
[heartbeat]   totals: pciCfgAccesses=3182 ahciCmds=2314 (reads=2311 writes=0 other=3)
[heartbeat: exitCount=85000 elapsedSec=2.3 lastPort=0xB008 write=0 val=0x89 rip=0xBEA03B02 (not in ntoskrnl) irql=0]
[heartbeat]   totals: pciCfgAccesses=3182 ahciCmds=2567 (reads=2564 writes=0 other=3)
[heartbeat: exitCount=90000 elapsedSec=2.4 lastPort=0xB008 write=0 val=0x89 rip=0xBEA03B02 (not in ntoskrnl) irql=0]
[heartbeat]   totals: pciCfgAccesses=3182 ahciCmds=2832 (reads=2829 writes=0 other=3)
[heartbeat: exitCount=95000 elapsedSec=2.6 lastPort=0xB008 write=0 val=0x89 rip=0xBEA03B02 (not in ntoskrnl) irql=0]
[heartbeat]   totals: pciCfgAccesses=3182 ahciCmds=3115 (reads=3112 writes=0 other=3)
[heartbeat: exitCount=100000 elapsedSec=2.7 lastPort=0xB008 write=0 val=0x89 rip=0xBEA03B02 (not in ntoskrnl) irql=0]
[heartbeat]   totals: pciCfgAccesses=3182 ahciCmds=3403 (reads=3400 writes=0 other=3)
[heartbeat: exitCount=105000 elapsedSec=2.9 lastPort=0xB008 write=0 val=0x89 rip=0xBEA03B02 (not in ntoskrnl) irql=0]
[heartbeat]   totals: pciCfgAccesses=3182 ahciCmds=3705 (reads=3702 writes=0 other=3)
[heartbeat: exitCount=110000 elapsedSec=3.2 lastPort=0xB008 write=0 val=0x2 rip=0xBF16B0DE (not in ntoskrnl) irql=0]
[heartbeat]   totals: pciCfgAccesses=3182 ahciCmds=3972 (reads=3969 writes=0 other=3)
[aux] controller: disable AUX port
[heartbeat: exitCount=115000 elapsedSec=6.2 lastPort=0xCFC write=0 val=0x0 rip=0x1DD9F06 (not in ntoskrnl) irql=0]
[heartbeat]   totals: pciCfgAccesses=3495 ahciCmds=3991 (reads=3988 writes=0 other=3)
[heartbeat: exitCount=120000 elapsedSec=6.2 lastPort=0xCFC write=0 val=0x0 rip=0x1DD9F06 (not in ntoskrnl) irql=0]
[heartbeat]   totals: pciCfgAccesses=5995 ahciCmds=3991 (reads=3988 writes=0 other=3)
[heartbeat: exitCount=125000 elapsedSec=6.3 lastPort=0xCFC write=0 val=0x0 rip=0x1DD9F06 (not in ntoskrnl) irql=0]
[heartbeat]   totals: pciCfgAccesses=8495 ahciCmds=3991 (reads=3988 writes=0 other=3)
[heartbeat: exitCount=130000 elapsedSec=6.4 lastPort=0xCFC write=0 val=0x0 rip=0x1DD9F06 (not in ntoskrnl) irql=0]
[heartbeat]   totals: pciCfgAccesses=10995 ahciCmds=3991 (reads=3988 writes=0 other=3)
[kerneldiag] candidate address 0xFFFFF801511A57DD resolves to module base 0xFFFFF80150E00000 (+0x3A57DD into it)
[kerneldiag] debug directory: type=2 codeViewRva=0x40970
[kerneldiag] module PDB name: ntkrnlmp.pdb guid=D9424FC4-861E-47C1-0FAD1B35DEC6DCC8 age=1
[wp] DISCOVERY at exitCount=130864 (pass 1)
[wp] armed breakpoints at module base 0xFFFFF80150E00000 (DR2 LFH-check armed=0): DR0=+0x3DC890 (U34 ExInitializePoolHeapManagement entry, VA=0xFFFFF801511DC890), DR1=+0x3FD6F0 (KeBugCheckEx, VA=0xFFFFF801511FD6F0), DR2=+0x343B49 (RtlpHpLfhOwnerMoveSubsegment entry, VA=0xFFFFF80151143B49), DR3=+0x9A188F (HalpIommuInitSystem ret, VA=0xFFFFF801517A188F)
[u32] ExPoolState pool-descriptor fields (pass 1):
[u32]   pool[0] desc@RVA0xC57EC0: +0x08=0x0 +0x10=0x0  <== +0x10 NULL
[u32]   pool[1] desc@RVA0xC59F80: +0x08=0x0 +0x10=0x0  <== +0x10 NULL
[u32]   pool[2] desc@RVA0xC5C040: +0x08=0x0 +0x10=0x0  <== +0x10 NULL
[u32]   pool[3] desc@RVA0xC5E100: +0x08=0x0 +0x10=0x0  <== +0x10 NULL
[u32]   pool[4] desc@RVA0xC601C0: +0x08=0x0 +0x10=0x0  <== +0x10 NULL
[u32]   pool[5] desc@RVA0xC62280: +0x08=0x0 +0x10=0x0  <== +0x10 NULL
[u32]   pool[6] desc@RVA0xC64340: +0x08=0x0 +0x10=0x0  <== +0x10 NULL
[u32]   pool[7] desc@RVA0xC66400: +0x08=0x0 +0x10=0x0  <== +0x10 NULL
[u27] dumped kernel image to ntoskrnl_dump.bin (4096/4096 pages readable)
[u33] baseline pass=1 exitCount=130864 pool[0] +0x08=0x0 +0x10=0x0
[u33] baseline pass=1 exitCount=130864 pool[1] +0x08=0x0 +0x10=0x0
[u33] baseline pass=1 exitCount=130864 pool[2] +0x08=0x0 +0x10=0x0
[u33] baseline pass=1 exitCount=130864 pool[3] +0x08=0x0 +0x10=0x0
[ioapic #1] gpa=0xFEC00000 pageOff=0x0 rip=0xFFFFF801511A57DD write=1 insnLen=0 bytes=16
[u42] pass1 ioapic1 SELECT reg=0x01
[ioapic #2] gpa=0xFEC00010 pageOff=0x10 rip=0xFFFFF801511A57E3 write=1 insnLen=0 bytes=16
[u42] pass1 ioapic1 WRITE reg=0x01 value=0x00000000
[ioapic #3] gpa=0xFEC00000 pageOff=0x0 rip=0xFFFFF801511A57EA write=1 insnLen=0 bytes=16
[u42] pass1 ioapic1 SELECT reg=0x01
[ioapic #4] gpa=0xFEC00010 pageOff=0x10 rip=0xFFFFF801511A57F0 write=0 insnLen=0 bytes=16
[u42] pass1 ioapic1 READ  reg=0x01 -> 0x00170011
[ioapic #5] gpa=0xFEC00000 pageOff=0x0 rip=0xFFFFF801511A57F3 write=1 insnLen=0 bytes=16
[u42] pass1 ioapic1 SELECT reg=0x01
[ioapic #6] gpa=0xFEC00010 pageOff=0x10 rip=0xFFFFF801511A57F9 write=1 insnLen=0 bytes=16
[u42] pass1 ioapic1 WRITE reg=0x01 value=0x00000000
[ioapic #7] gpa=0xFEC00000 pageOff=0x0 rip=0xFFFFF801511A5800 write=1 insnLen=0 bytes=16
[u42] pass1 ioapic1 SELECT reg=0x01
[ioapic #8] gpa=0xFEC00010 pageOff=0x10 rip=0xFFFFF801511A5806 write=0 insnLen=0 bytes=16
[u42] pass1 ioapic1 READ  reg=0x01 -> 0x00170011
[ioapic #9] gpa=0xFEC00000 pageOff=0x0 rip=0xFFFFF801511A5835 write=1 insnLen=0 bytes=16
[u42] pass1 ioapic1 SELECT reg=0x00
[ioapic #10] gpa=0xFEC00010 pageOff=0x10 rip=0xFFFFF801511A583B write=0 insnLen=0 bytes=16
[u42] pass1 ioapic1 READ  reg=0x00 -> 0x01000000
[ioapic #11] gpa=0xFEC00010 pageOff=0x10 rip=0xFFFFF801511A5846 write=1 insnLen=0 bytes=16
[u42] pass1 ioapic1 WRITE reg=0x00 value=0x01000000
[ioapic #12] gpa=0xFEC00000 pageOff=0x0 rip=0xFFFFF801511A585D write=1 insnLen=0 bytes=16
[u42] pass1 ioapic1 SELECT reg=0x10
[ioapic #13] gpa=0xFEC00010 pageOff=0x10 rip=0xFFFFF801511A585F write=0 insnLen=0 bytes=16
[u42] pass1 ioapic1 READ  reg=0x10 -> 0x00010000
[ioapic #14] gpa=0xFEC00010 pageOff=0x10 rip=0xFFFFF801511A587A write=1 insnLen=0 bytes=16
[u42] pass1 ioapic1 WRITE reg=0x10 value=0x000100FF
[ioapic #15] gpa=0xFEC00000 pageOff=0x0 rip=0xFFFFF801511A5881 write=1 insnLen=0 bytes=16
[u42] pass1 ioapic1 SELECT reg=0x11
[ioapic #16] gpa=0xFEC00010 pageOff=0x10 rip=0xFFFFF801511A5883 write=1 insnLen=0 bytes=16
[u42] pass1 ioapic1 WRITE reg=0x11 value=0x00000000
[ioapic #17] gpa=0xFEC00000 pageOff=0x0 rip=0xFFFFF801511A585D write=1 insnLen=0 bytes=16
[u42] pass1 ioapic1 SELECT reg=0x12
[ioapic #18] gpa=0xFEC00010 pageOff=0x10 rip=0xFFFFF801511A585F write=0 insnLen=0 bytes=16
[u42] pass1 ioapic1 READ  reg=0x12 -> 0x00010000
[ioapic #19] gpa=0xFEC00010 pageOff=0x10 rip=0xFFFFF801511A587A write=1 insnLen=0 bytes=16
[u42] pass1 ioapic1 WRITE reg=0x12 value=0x000100FF
[ioapic #20] gpa=0xFEC00000 pageOff=0x0 rip=0xFFFFF801511A5881 write=1 insnLen=0 bytes=16
[u42] pass1 ioapic1 SELECT reg=0x13
[ioapic #21] gpa=0xFEC00010 pageOff=0x10 rip=0xFFFFF801511A5883 write=1 insnLen=0 bytes=16
[u42] pass1 ioapic1 WRITE reg=0x13 value=0x00000000
[ioapic #22] gpa=0xFEC00000 pageOff=0x0 rip=0xFFFFF801511A585D write=1 insnLen=0 bytes=16
[u42] pass1 ioapic1 SELECT reg=0x14
[ioapic #23] gpa=0xFEC00010 pageOff=0x10 rip=0xFFFFF801511A585F write=0 insnLen=0 bytes=16
[u42] pass1 ioapic1 READ  reg=0x14 -> 0x00010000
[ioapic #24] gpa=0xFEC00010 pageOff=0x10 rip=0xFFFFF801511A587A write=1 insnLen=0 bytes=16
[u42] pass1 ioapic1 WRITE reg=0x14 value=0x000100FF
[ioapic #25] gpa=0xFEC00000 pageOff=0x0 rip=0xFFFFF801511A5881 write=1 insnLen=0 bytes=16
[u42] pass1 ioapic1 SELECT reg=0x15
[ioapic #26] gpa=0xFEC00010 pageOff=0x10 rip=0xFFFFF801511A5883 write=1 insnLen=0 bytes=16
[u42] pass1 ioapic1 WRITE reg=0x15 value=0x00000000
[ioapic #27] gpa=0xFEC00000 pageOff=0x0 rip=0xFFFFF801511A585D write=1 insnLen=0 bytes=16
[u42] pass1 ioapic1 SELECT reg=0x16
[ioapic #28] gpa=0xFEC00010 pageOff=0x10 rip=0xFFFFF801511A585F write=0 insnLen=0 bytes=16
[u42] pass1 ioapic1 READ  reg=0x16 -> 0x00010000
[ioapic #29] gpa=0xFEC00010 pageOff=0x10 rip=0xFFFFF801511A587A write=1 insnLen=0 bytes=16
[u42] pass1 ioapic1 WRITE reg=0x16 value=0x000100FF
[ioapic #30] gpa=0xFEC00000 pageOff=0x0 rip=0xFFFFF801511A5881 write=1 insnLen=0 bytes=16
[u42] pass1 ioapic1 SELECT reg=0x17
[ioapic #31] gpa=0xFEC00010 pageOff=0x10 rip=0xFFFFF801511A5883 write=1 insnLen=0 bytes=16
[u42] pass1 ioapic1 WRITE reg=0x17 value=0x00000000
[ioapic #32] gpa=0xFEC00000 pageOff=0x0 rip=0xFFFFF801511A585D write=1 insnLen=0 bytes=16
[u42] pass1 ioapic1 SELECT reg=0x18
[ioapic #33] gpa=0xFEC00010 pageOff=0x10 rip=0xFFFFF801511A585F write=0 insnLen=0 bytes=16
[u42] pass1 ioapic1 READ  reg=0x18 -> 0x00010000
[ioapic #34] gpa=0xFEC00010 pageOff=0x10 rip=0xFFFFF801511A587A write=1 insnLen=0 bytes=16
[u42] pass1 ioapic1 WRITE reg=0x18 value=0x000100FF
[ioapic #35] gpa=0xFEC00000 pageOff=0x0 rip=0xFFFFF801511A5881 write=1 insnLen=0 bytes=16
[u42] pass1 ioapic1 SELECT reg=0x19
[ioapic #36] gpa=0xFEC00010 pageOff=0x10 rip=0xFFFFF801511A5883 write=1 insnLen=0 bytes=16
[u42] pass1 ioapic1 WRITE reg=0x19 value=0x00000000
[ioapic #37] gpa=0xFEC00000 pageOff=0x0 rip=0xFFFFF801511A585D write=1 insnLen=0 bytes=16
[u42] pass1 ioapic1 SELECT reg=0x1A
[ioapic #38] gpa=0xFEC00010 pageOff=0x10 rip=0xFFFFF801511A585F write=0 insnLen=0 bytes=16
[u42] pass1 ioapic1 READ  reg=0x1A -> 0x00010000
[ioapic #39] gpa=0xFEC00010 pageOff=0x10 rip=0xFFFFF801511A587A write=1 insnLen=0 bytes=16
[u42] pass1 ioapic1 WRITE reg=0x1A value=0x000100FF
[ioapic #40] gpa=0xFEC00000 pageOff=0x0 rip=0xFFFFF801511A5881 write=1 insnLen=0 bytes=16
[u42] pass1 ioapic1 SELECT reg=0x1B
[ioapic #41] gpa=0xFEC00010 pageOff=0x10 rip=0xFFFFF801511A5883 write=1 insnLen=0 bytes=16
[u42] pass1 ioapic1 WRITE reg=0x1B value=0x00000000
[ioapic #42] gpa=0xFEC00000 pageOff=0x0 rip=0xFFFFF801511A585D write=1 insnLen=0 bytes=16
[u42] pass1 ioapic1 SELECT reg=0x1C
[ioapic #43] gpa=0xFEC00010 pageOff=0x10 rip=0xFFFFF801511A585F write=0 insnLen=0 bytes=16
[u42] pass1 ioapic1 READ  reg=0x1C -> 0x00010000
[ioapic #44] gpa=0xFEC00010 pageOff=0x10 rip=0xFFFFF801511A587A write=1 insnLen=0 bytes=16
[u42] pass1 ioapic1 WRITE reg=0x1C value=0x000100FF
[ioapic #45] gpa=0xFEC00000 pageOff=0x0 rip=0xFFFFF801511A5881 write=1 insnLen=0 bytes=16
[u42] pass1 ioapic1 SELECT reg=0x1D
[ioapic #46] gpa=0xFEC00010 pageOff=0x10 rip=0xFFFFF801511A5883 write=1 insnLen=0 bytes=16
[u42] pass1 ioapic1 WRITE reg=0x1D value=0x00000000
[ioapic #47] gpa=0xFEC00000 pageOff=0x0 rip=0xFFFFF801511A585D write=1 insnLen=0 bytes=16
[u42] pass1 ioapic1 SELECT reg=0x1E
[ioapic #48] gpa=0xFEC00010 pageOff=0x10 rip=0xFFFFF801511A585F write=0 insnLen=0 bytes=16
[u42] pass1 ioapic1 READ  reg=0x1E -> 0x00010000
[ioapic #49] gpa=0xFEC00010 pageOff=0x10 rip=0xFFFFF801511A587A write=1 insnLen=0 bytes=16
[u42] pass1 ioapic1 WRITE reg=0x1E value=0x000100FF
[ioapic #50] gpa=0xFEC00000 pageOff=0x0 rip=0xFFFFF801511A5881 write=1 insnLen=0 bytes=16
[u42] pass1 ioapic1 SELECT reg=0x1F
[ioapic #51] gpa=0xFEC00010 pageOff=0x10 rip=0xFFFFF801511A5883 write=1 insnLen=0 bytes=16
[u42] pass1 ioapic1 WRITE reg=0x1F value=0x00000000
[ioapic #52] gpa=0xFEC00000 pageOff=0x0 rip=0xFFFFF801511A585D write=1 insnLen=0 bytes=16
[u42] pass1 ioapic1 SELECT reg=0x20
[ioapic #53] gpa=0xFEC00010 pageOff=0x10 rip=0xFFFFF801511A585F write=0 insnLen=0 bytes=16
[u42] pass1 ioapic1 READ  reg=0x20 -> 0x00010000
[ioapic #54] gpa=0xFEC00010 pageOff=0x10 rip=0xFFFFF801511A587A write=1 insnLen=0 bytes=16
[u42] pass1 ioapic1 WRITE reg=0x20 value=0x000100FF
[ioapic #55] gpa=0xFEC00000 pageOff=0x0 rip=0xFFFFF801511A5881 write=1 insnLen=0 bytes=16
[u42] pass1 ioapic1 SELECT reg=0x21
[ioapic #56] gpa=0xFEC00010 pageOff=0x10 rip=0xFFFFF801511A5883 write=1 insnLen=0 bytes=16
[u42] pass1 ioapic1 WRITE reg=0x21 value=0x00000000
[ioapic #57] gpa=0xFEC00000 pageOff=0x0 rip=0xFFFFF801511A585D write=1 insnLen=0 bytes=16
[u42] pass1 ioapic1 SELECT reg=0x22
[ioapic #58] gpa=0xFEC00010 pageOff=0x10 rip=0xFFFFF801511A585F write=0 insnLen=0 bytes=16
[u42] pass1 ioapic1 READ  reg=0x22 -> 0x00010000
[ioapic #59] gpa=0xFEC00010 pageOff=0x10 rip=0xFFFFF801511A587A write=1 insnLen=0 bytes=16
[u42] pass1 ioapic1 WRITE reg=0x22 value=0x000100FF
[ioapic #60] gpa=0xFEC00000 pageOff=0x0 rip=0xFFFFF801511A5881 write=1 insnLen=0 bytes=16
[u42] pass1 ioapic1 SELECT reg=0x23
[ioapic #61] gpa=0xFEC00010 pageOff=0x10 rip=0xFFFFF801511A5883 write=1 insnLen=0 bytes=16
[u42] pass1 ioapic1 WRITE reg=0x23 value=0x00000000
[ioapic #62] gpa=0xFEC00000 pageOff=0x0 rip=0xFFFFF801511A585D write=1 insnLen=0 bytes=16
[u42] pass1 ioapic1 SELECT reg=0x24
[ioapic #63] gpa=0xFEC00010 pageOff=0x10 rip=0xFFFFF801511A585F write=0 insnLen=0 bytes=16
[u42] pass1 ioapic1 READ  reg=0x24 -> 0x00010000
[ioapic #64] gpa=0xFEC00010 pageOff=0x10 rip=0xFFFFF801511A587A write=1 insnLen=0 bytes=16
[u42] pass1 ioapic1 WRITE reg=0x24 value=0x000100FF
[ioapic #65] gpa=0xFEC00000 pageOff=0x0 rip=0xFFFFF801511A5881 write=1 insnLen=0 bytes=16
[u42] pass1 ioapic1 SELECT reg=0x25
[ioapic #66] gpa=0xFEC00010 pageOff=0x10 rip=0xFFFFF801511A5883 write=1 insnLen=0 bytes=16
[u42] pass1 ioapic1 WRITE reg=0x25 value=0x00000000
[ioapic #67] gpa=0xFEC00000 pageOff=0x0 rip=0xFFFFF801511A585D write=1 insnLen=0 bytes=16
[u42] pass1 ioapic1 SELECT reg=0x26
[ioapic #68] gpa=0xFEC00010 pageOff=0x10 rip=0xFFFFF801511A585F write=0 insnLen=0 bytes=16
[u42] pass1 ioapic1 READ  reg=0x26 -> 0x00010000
[ioapic #69] gpa=0xFEC00010 pageOff=0x10 rip=0xFFFFF801511A587A write=1 insnLen=0 bytes=16
[u42] pass1 ioapic1 WRITE reg=0x26 value=0x000100FF
[ioapic #70] gpa=0xFEC00000 pageOff=0x0 rip=0xFFFFF801511A5881 write=1 insnLen=0 bytes=16
[u42] pass1 ioapic1 SELECT reg=0x27
[ioapic #71] gpa=0xFEC00010 pageOff=0x10 rip=0xFFFFF801511A5883 write=1 insnLen=0 bytes=16
[u42] pass1 ioapic1 WRITE reg=0x27 value=0x00000000
[ioapic #72] gpa=0xFEC00000 pageOff=0x0 rip=0xFFFFF801511A585D write=1 insnLen=0 bytes=16
[u42] pass1 ioapic1 SELECT reg=0x28
[ioapic #73] gpa=0xFEC00010 pageOff=0x10 rip=0xFFFFF801511A585F write=0 insnLen=0 bytes=16
[u42] pass1 ioapic1 READ  reg=0x28 -> 0x00010000
[ioapic #74] gpa=0xFEC00010 pageOff=0x10 rip=0xFFFFF801511A587A write=1 insnLen=0 bytes=16
[u42] pass1 ioapic1 WRITE reg=0x28 value=0x000100FF
[ioapic #75] gpa=0xFEC00000 pageOff=0x0 rip=0xFFFFF801511A5881 write=1 insnLen=0 bytes=16
[u42] pass1 ioapic1 SELECT reg=0x29
[ioapic #76] gpa=0xFEC00010 pageOff=0x10 rip=0xFFFFF801511A5883 write=1 insnLen=0 bytes=16
[u42] pass1 ioapic1 WRITE reg=0x29 value=0x00000000
[ioapic #77] gpa=0xFEC00000 pageOff=0x0 rip=0xFFFFF801511A585D write=1 insnLen=0 bytes=16
[u42] pass1 ioapic1 SELECT reg=0x2A
[ioapic #78] gpa=0xFEC00010 pageOff=0x10 rip=0xFFFFF801511A585F write=0 insnLen=0 bytes=16
[u42] pass1 ioapic1 READ  reg=0x2A -> 0x00010000
[ioapic #79] gpa=0xFEC00010 pageOff=0x10 rip=0xFFFFF801511A587A write=1 insnLen=0 bytes=16
[u42] pass1 ioapic1 WRITE reg=0x2A value=0x000100FF
[ioapic #80] gpa=0xFEC00000 pageOff=0x0 rip=0xFFFFF801511A5881 write=1 insnLen=0 bytes=16
[u42] pass1 ioapic1 SELECT reg=0x2B
[ioapic #81] gpa=0xFEC00010 pageOff=0x10 rip=0xFFFFF801511A5883 write=1 insnLen=0 bytes=16
[u42] pass1 ioapic1 WRITE reg=0x2B value=0x00000000
[ioapic #82] gpa=0xFEC00000 pageOff=0x0 rip=0xFFFFF801511A585D write=1 insnLen=0 bytes=16
[u42] pass1 ioapic1 SELECT reg=0x2C
[ioapic #83] gpa=0xFEC00010 pageOff=0x10 rip=0xFFFFF801511A585F write=0 insnLen=0 bytes=16
[u42] pass1 ioapic1 READ  reg=0x2C -> 0x00010000
[ioapic #84] gpa=0xFEC00010 pageOff=0x10 rip=0xFFFFF801511A587A write=1 insnLen=0 bytes=16
[u42] pass1 ioapic1 WRITE reg=0x2C value=0x000100FF
[ioapic #85] gpa=0xFEC00000 pageOff=0x0 rip=0xFFFFF801511A5881 write=1 insnLen=0 bytes=16
[u42] pass1 ioapic1 SELECT reg=0x2D
[ioapic #86] gpa=0xFEC00010 pageOff=0x10 rip=0xFFFFF801511A5883 write=1 insnLen=0 bytes=16
[u42] pass1 ioapic1 WRITE reg=0x2D value=0x00000000
[ioapic #87] gpa=0xFEC00000 pageOff=0x0 rip=0xFFFFF801511A585D write=1 insnLen=0 bytes=16
[u42] pass1 ioapic1 SELECT reg=0x2E
[ioapic #88] gpa=0xFEC00010 pageOff=0x10 rip=0xFFFFF801511A585F write=0 insnLen=0 bytes=16
[u42] pass1 ioapic1 READ  reg=0x2E -> 0x00010000
[ioapic #89] gpa=0xFEC00010 pageOff=0x10 rip=0xFFFFF801511A587A write=1 insnLen=0 bytes=16
[u42] pass1 ioapic1 WRITE reg=0x2E value=0x000100FF
[ioapic #90] gpa=0xFEC00000 pageOff=0x0 rip=0xFFFFF801511A5881 write=1 insnLen=0 bytes=16
[u42] pass1 ioapic1 SELECT reg=0x2F
[ioapic #91] gpa=0xFEC00010 pageOff=0x10 rip=0xFFFFF801511A5883 write=1 insnLen=0 bytes=16
[u42] pass1 ioapic1 WRITE reg=0x2F value=0x00000000
[ioapic #92] gpa=0xFEC00000 pageOff=0x0 rip=0xFFFFF801511A585D write=1 insnLen=0 bytes=16
[u42] pass1 ioapic1 SELECT reg=0x30
[ioapic #93] gpa=0xFEC00010 pageOff=0x10 rip=0xFFFFF801511A585F write=0 insnLen=0 bytes=16
[u42] pass1 ioapic1 READ  reg=0x30 -> 0x00010000
[ioapic #94] gpa=0xFEC00010 pageOff=0x10 rip=0xFFFFF801511A587A write=1 insnLen=0 bytes=16
[u42] pass1 ioapic1 WRITE reg=0x30 value=0x000100FF
[ioapic #95] gpa=0xFEC00000 pageOff=0x0 rip=0xFFFFF801511A5881 write=1 insnLen=0 bytes=16
[u42] pass1 ioapic1 SELECT reg=0x31
[ioapic #96] gpa=0xFEC00010 pageOff=0x10 rip=0xFFFFF801511A5883 write=1 insnLen=0 bytes=16
[u42] pass1 ioapic1 WRITE reg=0x31 value=0x00000000
[ioapic #97] gpa=0xFEC00000 pageOff=0x0 rip=0xFFFFF801511A585D write=1 insnLen=0 bytes=16
[u42] pass1 ioapic1 SELECT reg=0x32
[ioapic #98] gpa=0xFEC00010 pageOff=0x10 rip=0xFFFFF801511A585F write=0 insnLen=0 bytes=16
[u42] pass1 ioapic1 READ  reg=0x32 -> 0x00010000
[ioapic #99] gpa=0xFEC00010 pageOff=0x10 rip=0xFFFFF801511A587A write=1 insnLen=0 bytes=16
[u42] pass1 ioapic1 WRITE reg=0x32 value=0x000100FF
[ioapic #100] gpa=0xFEC00000 pageOff=0x0 rip=0xFFFFF801511A5881 write=1 insnLen=0 bytes=16
[u42] pass1 ioapic1 SELECT reg=0x33
[u42] pass1 ioapic1 WRITE reg=0x33 value=0x00000000
[u42] pass1 ioapic1 SELECT reg=0x34
[u42] pass1 ioapic1 READ  reg=0x34 -> 0x00010000
[u42] pass1 ioapic1 WRITE reg=0x34 value=0x000100FF
[u42] pass1 ioapic1 SELECT reg=0x35
[u42] pass1 ioapic1 WRITE reg=0x35 value=0x00000000
[u42] pass1 ioapic1 SELECT reg=0x36
[u42] pass1 ioapic1 READ  reg=0x36 -> 0x00010000
[u42] pass1 ioapic1 WRITE reg=0x36 value=0x000100FF
[u42] pass1 ioapic1 SELECT reg=0x37
[u42] pass1 ioapic1 WRITE reg=0x37 value=0x00000000
[u42] pass1 ioapic1 SELECT reg=0x38
[u42] pass1 ioapic1 READ  reg=0x38 -> 0x00010000
[u42] pass1 ioapic1 WRITE reg=0x38 value=0x000100FF
[u42] pass1 ioapic1 SELECT reg=0x39
[u42] pass1 ioapic1 WRITE reg=0x39 value=0x00000000
[u42] pass1 ioapic1 SELECT reg=0x3A
[u42] pass1 ioapic1 READ  reg=0x3A -> 0x00010000
[u42] pass1 ioapic1 WRITE reg=0x3A value=0x000100FF
[u42] pass1 ioapic1 SELECT reg=0x3B
[u42] pass1 ioapic1 WRITE reg=0x3B value=0x00000000
[u42] pass1 ioapic1 SELECT reg=0x3C
[u42] pass1 ioapic1 READ  reg=0x3C -> 0x00010000
[u42] pass1 ioapic1 WRITE reg=0x3C value=0x000100FF
[u42] pass1 ioapic1 SELECT reg=0x3D
[u42] pass1 ioapic1 WRITE reg=0x3D value=0x00000000
[u42] pass1 ioapic1 SELECT reg=0x3E
[u42] pass1 ioapic1 READ  reg=0x3E -> 0x00010000
[u42] pass1 ioapic1 WRITE reg=0x3E value=0x000100FF
[u42] pass1 ioapic1 SELECT reg=0x3F
[u42] pass1 ioapic1 WRITE reg=0x3F value=0x00000000
[u42] pass1 ioapic2 SELECT reg=0x01
[u42] pass1 ioapic2 WRITE reg=0x01 value=0x00000000
[u42] pass1 ioapic2 SELECT reg=0x01
[u42] pass1 ioapic2 READ  reg=0x01 -> 0x00170011
[u42] pass1 ioapic2 SELECT reg=0x01
[u42] pass1 ioapic2 WRITE reg=0x01 value=0x00000000
[u42] pass1 ioapic2 SELECT reg=0x01
[u42] pass1 ioapic2 READ  reg=0x01 -> 0x00170011
[u42] pass1 ioapic2 SELECT reg=0x00
[u42] pass1 ioapic2 READ  reg=0x00 -> 0x02000000
[u42] pass1 ioapic2 WRITE reg=0x00 value=0x02000000
[u42] pass1 ioapic2 SELECT reg=0x10
[u42] pass1 ioapic2 READ  reg=0x10 -> 0x00010000
[u42] pass1 ioapic2 WRITE reg=0x10 value=0x000100FF
[u42] pass1 ioapic2 SELECT reg=0x11
[u42] pass1 ioapic2 WRITE reg=0x11 value=0x00000000
[u42] pass1 ioapic2 SELECT reg=0x12
[u42] pass1 ioapic2 READ  reg=0x12 -> 0x00010000
[u42] pass1 ioapic2 WRITE reg=0x12 value=0x000100FF
[u42] pass1 ioapic2 SELECT reg=0x13
[u42] pass1 ioapic2 WRITE reg=0x13 value=0x00000000
[u42] pass1 ioapic2 SELECT reg=0x14
[u42] pass1 ioapic2 READ  reg=0x14 -> 0x00010000
[u42] pass1 ioapic2 WRITE reg=0x14 value=0x000100FF
[u42] pass1 ioapic2 SELECT reg=0x15
[u42] pass1 ioapic2 WRITE reg=0x15 value=0x00000000
[u42] pass1 ioapic2 SELECT reg=0x16
[u42] pass1 ioapic2 READ  reg=0x16 -> 0x00010000
[u42] pass1 ioapic2 WRITE reg=0x16 value=0x000100FF
[u42] pass1 ioapic2 SELECT reg=0x17
[u42] pass1 ioapic2 WRITE reg=0x17 value=0x00000000
[u42] pass1 ioapic2 SELECT reg=0x18
[u42] pass1 ioapic2 READ  reg=0x18 -> 0x00010000
[u42] pass1 ioapic2 WRITE reg=0x18 value=0x000100FF
[u42] pass1 ioapic2 SELECT reg=0x19
[u42] pass1 ioapic2 WRITE reg=0x19 value=0x00000000
[u42] pass1 ioapic2 SELECT reg=0x1A
[u42] pass1 ioapic2 READ  reg=0x1A -> 0x00010000
[u42] pass1 ioapic2 WRITE reg=0x1A value=0x000100FF
[u42] pass1 ioapic2 SELECT reg=0x1B
[u42] pass1 ioapic2 WRITE reg=0x1B value=0x00000000
[u42] pass1 ioapic2 SELECT reg=0x1C
[u42] pass1 ioapic2 READ  reg=0x1C -> 0x00010000
[u42] pass1 ioapic2 WRITE reg=0x1C value=0x000100FF
[u42] pass1 ioapic2 SELECT reg=0x1D
[u42] pass1 ioapic2 WRITE reg=0x1D value=0x00000000
[u42] pass1 ioapic2 SELECT reg=0x1E
[u42] pass1 ioapic2 READ  reg=0x1E -> 0x00010000
[u42] pass1 ioapic2 WRITE reg=0x1E value=0x000100FF
[u42] pass1 ioapic2 SELECT reg=0x1F
[u42] pass1 ioapic2 WRITE reg=0x1F value=0x00000000
[u42] pass1 ioapic2 SELECT reg=0x20
[u42] pass1 ioapic2 READ  reg=0x20 -> 0x00010000
[u42] pass1 ioapic2 WRITE reg=0x20 value=0x000100FF
[u42] pass1 ioapic2 SELECT reg=0x21
[u42] pass1 ioapic2 WRITE reg=0x21 value=0x00000000
[u42] pass1 ioapic2 SELECT reg=0x22
[u42] pass1 ioapic2 READ  reg=0x22 -> 0x00010000
[u42] pass1 ioapic2 WRITE reg=0x22 value=0x000100FF
[u42] pass1 ioapic2 SELECT reg=0x23
[u42] pass1 ioapic2 WRITE reg=0x23 value=0x00000000
[u42] pass1 ioapic2 SELECT reg=0x24
[u42] pass1 ioapic2 READ  reg=0x24 -> 0x00010000
[u42] pass1 ioapic2 WRITE reg=0x24 value=0x000100FF
[u42] pass1 ioapic2 SELECT reg=0x25
[u42] pass1 ioapic2 WRITE reg=0x25 value=0x00000000
[u42] pass1 ioapic2 SELECT reg=0x26
[u42] pass1 ioapic2 READ  reg=0x26 -> 0x00010000
[u42] pass1 ioapic2 WRITE reg=0x26 value=0x000100FF
[u42] pass1 ioapic2 SELECT reg=0x27
[u42] pass1 ioapic2 WRITE reg=0x27 value=0x00000000
[u42] pass1 ioapic2 SELECT reg=0x28
[u42] pass1 ioapic2 READ  reg=0x28 -> 0x00010000
[u42] pass1 ioapic2 WRITE reg=0x28 value=0x000100FF
[u42] pass1 ioapic2 SELECT reg=0x29
[u42] pass1 ioapic2 WRITE reg=0x29 value=0x00000000
[u42] pass1 ioapic2 SELECT reg=0x2A
[u42] pass1 ioapic2 READ  reg=0x2A -> 0x00010000
[u42] pass1 ioapic2 WRITE reg=0x2A value=0x000100FF
[u42] pass1 ioapic2 SELECT reg=0x2B
[u42] pass1 ioapic2 WRITE reg=0x2B value=0x00000000
[u42] pass1 ioapic2 SELECT reg=0x2C
[u42] pass1 ioapic2 READ  reg=0x2C -> 0x00010000
[u42] pass1 ioapic2 WRITE reg=0x2C value=0x000100FF
[u42] pass1 ioapic2 SELECT reg=0x2D
[u42] pass1 ioapic2 WRITE reg=0x2D value=0x00000000
[u42] pass1 ioapic2 SELECT reg=0x2E
[u42] pass1 ioapic2 READ  reg=0x2E -> 0x00010000
[u42] pass1 ioapic2 WRITE reg=0x2E value=0x000100FF
[u42] pass1 ioapic2 SELECT reg=0x2F
[u42] pass1 ioapic2 WRITE reg=0x2F value=0x00000000
[u42] pass1 ioapic2 SELECT reg=0x30
[u42] pass1 ioapic2 READ  reg=0x30 -> 0x00010000
[u42] pass1 ioapic2 WRITE reg=0x30 value=0x000100FF
[u42] pass1 ioapic2 SELECT reg=0x31
[u42] pass1 ioapic2 WRITE reg=0x31 value=0x00000000
[u42] pass1 ioapic2 SELECT reg=0x32
[u42] pass1 ioapic2 READ  reg=0x32 -> 0x00010000
[u42] pass1 ioapic2 WRITE reg=0x32 value=0x000100FF
[u42] pass1 ioapic2 SELECT reg=0x33
[u42] pass1 ioapic2 WRITE reg=0x33 value=0x00000000
[u42] pass1 ioapic2 SELECT reg=0x34
[u42] pass1 ioapic2 READ  reg=0x34 -> 0x00010000
[u42] pass1 ioapic2 WRITE reg=0x34 value=0x000100FF
[u42] pass1 ioapic2 SELECT reg=0x35
[u42] pass1 ioapic2 WRITE reg=0x35 value=0x00000000
[u42] pass1 ioapic2 SELECT reg=0x36
[u42] pass1 ioapic2 READ  reg=0x36 -> 0x00010000
[u42] pass1 ioapic2 WRITE reg=0x36 value=0x000100FF
[u42] pass1 ioapic2 SELECT reg=0x37
[u42] pass1 ioapic2 WRITE reg=0x37 value=0x00000000
[u42] pass1 ioapic2 SELECT reg=0x38
[u42] pass1 ioapic2 READ  reg=0x38 -> 0x00010000
[u42] pass1 ioapic2 WRITE reg=0x38 value=0x000100FF
[u42] pass1 ioapic2 SELECT reg=0x39
[u42] pass1 ioapic2 WRITE reg=0x39 value=0x00000000
[u42] pass1 ioapic2 SELECT reg=0x3A
[u42] pass1 ioapic2 READ  reg=0x3A -> 0x00010000
[u42] pass1 ioapic2 WRITE reg=0x3A value=0x000100FF
[u42] pass1 ioapic2 SELECT reg=0x3B
[u42] pass1 ioapic2 WRITE reg=0x3B value=0x00000000
[u42] pass1 ioapic2 SELECT reg=0x3C
[u42] pass1 ioapic2 READ  reg=0x3C -> 0x00010000
[u42] pass1 ioapic2 WRITE reg=0x3C value=0x000100FF
[u42] pass1 ioapic2 SELECT reg=0x3D
[u42] pass1 ioapic2 WRITE reg=0x3D value=0x00000000
[u42] pass1 ioapic2 SELECT reg=0x3E
[u42] pass1 ioapic2 READ  reg=0x3E -> 0x00010000
[u42] pass1 ioapic2 WRITE reg=0x3E value=0x000100FF
[heartbeat: exitCount=135000 elapsedSec=6.6 lastPort=0xB008 write=0 val=0xFF rip=0xFFFFF80151165445 irql=0]
[heartbeat]   ntoskrnl+0x365445  (resolve: tools/pdbsym.py near <rva>)
[heartbeat]   totals: pciCfgAccesses=11427 ahciCmds=3991 (reads=3988 writes=0 other=3)
[cmos-ab] write reg=0x0A value=0x25 (RegA=0x25 RegB=0x02, PIE=0)
[ioapic-rte] controller id=1 entry=8 reg=0x20 value=0x000008D1 -> full RTE now 0x01000000000008D1 (vector=0xD1 masked=0)
[cmos-ab] write reg=0x0B value=0x02 (RegA=0x25 RegB=0x02, PIE=0)
[ioapic-rte] controller id=1 entry=8 reg=0x21 value=0x01000000 -> full RTE now 0x01000000000008D1 (vector=0xD1 masked=0)
[ioapic-rte] controller id=1 entry=8 reg=0x20 value=0x000008D1 -> full RTE now 0x01000000000008D1 (vector=0xD1 masked=0)
[cmos-ab] write reg=0x0B value=0x42 (RegA=0x25 RegB=0x42, PIE=1)
[u43] pass1 gsi=8 PROGRAMMED vector=0xD1 (legacy would be 0x70) rte=0x01000000000008D1 kernelFound=1
[rtc-diag] tick #1 FIRED vector=0xD1, skippedTotal=0 firedTotal=1
[u43] pass1 gsi=8 PROGRAMMED vector=0xD1 (legacy would be 0x70) rte=0x01000000000008D1 kernelFound=1
[rtc-diag] tick #2 FIRED vector=0xD1, skippedTotal=0 firedTotal=2
[u43] pass1 gsi=8 PROGRAMMED vector=0xD1 (legacy would be 0x70) rte=0x01000000000008D1 kernelFound=1
[rtc-diag] tick #3 FIRED vector=0xD1, skippedTotal=0 firedTotal=3
[u43] pass1 gsi=8 PROGRAMMED vector=0xD1 (legacy would be 0x70) rte=0x01000000000008D1 kernelFound=1
[rtc-diag] tick #4 FIRED vector=0xD1, skippedTotal=0 firedTotal=4
[u43] pass1 gsi=8 PROGRAMMED vector=0xD1 (legacy would be 0x70) rte=0x01000000000008D1 kernelFound=1
[rtc-diag] tick #5 FIRED vector=0xD1, skippedTotal=0 firedTotal=5
[u43] pass1 gsi=8 PROGRAMMED vector=0xD1 (legacy would be 0x70) rte=0x01000000000008D1 kernelFound=1
[rtc-diag] tick #6 FIRED vector=0xD1, skippedTotal=0 firedTotal=6
[u43] pass1 gsi=8 PROGRAMMED vector=0xD1 (legacy would be 0x70) rte=0x01000000000008D1 kernelFound=1
[rtc-diag] tick #7 FIRED vector=0xD1, skippedTotal=0 firedTotal=7
[u43] pass1 gsi=8 PROGRAMMED vector=0xD1 (legacy would be 0x70) rte=0x01000000000008D1 kernelFound=1
[rtc-diag] tick #8 FIRED vector=0xD1, skippedTotal=0 firedTotal=8
[u43] pass1 gsi=8 PROGRAMMED vector=0xD1 (legacy would be 0x70) rte=0x01000000000008D1 kernelFound=1
[rtc-diag] tick #9 FIRED vector=0xD1, skippedTotal=0 firedTotal=9
[u43] pass1 gsi=8 PROGRAMMED vector=0xD1 (legacy would be 0x70) rte=0x01000000000008D1 kernelFound=1
[rtc-diag] tick #10 FIRED vector=0xD1, skippedTotal=0 firedTotal=10
[u43] pass1 gsi=8 PROGRAMMED vector=0xD1 (legacy would be 0x70) rte=0x01000000000008D1 kernelFound=1
[rtc-diag] tick #11 FIRED vector=0xD1, skippedTotal=0 firedTotal=11
[u43] pass1 gsi=8 PROGRAMMED vector=0xD1 (legacy would be 0x70) rte=0x01000000000008D1 kernelFound=1
[rtc-diag] tick #12 FIRED vector=0xD1, skippedTotal=0 firedTotal=12
[u43] pass1 gsi=8 PROGRAMMED vector=0xD1 (legacy would be 0x70) rte=0x01000000000008D1 kernelFound=1
[rtc-diag] tick #13 FIRED vector=0xD1, skippedTotal=0 firedTotal=13
[u43] pass1 gsi=8 PROGRAMMED vector=0xD1 (legacy would be 0x70) rte=0x01000000000008D1 kernelFound=1
[rtc-diag] tick #14 FIRED vector=0xD1, skippedTotal=0 firedTotal=14
[u43] pass1 gsi=8 PROGRAMMED vector=0xD1 (legacy would be 0x70) rte=0x01000000000008D1 kernelFound=1
[rtc-diag] tick #15 FIRED vector=0xD1, skippedTotal=0 firedTotal=15
[u43] pass1 gsi=8 PROGRAMMED vector=0xD1 (legacy would be 0x70) rte=0x01000000000008D1 kernelFound=1
[rtc-diag] tick #16 FIRED vector=0xD1, skippedTotal=0 firedTotal=16
[u43] pass1 gsi=8 PROGRAMMED vector=0xD1 (legacy would be 0x70) rte=0x01000000000008D1 kernelFound=1
[rtc-diag] tick #17 FIRED vector=0xD1, skippedTotal=0 firedTotal=17
[u43] pass1 gsi=8 PROGRAMMED vector=0xD1 (legacy would be 0x70) rte=0x01000000000008D1 kernelFound=1
[rtc-diag] tick #18 FIRED vector=0xD1, skippedTotal=0 firedTotal=18
[u43] pass1 gsi=8 PROGRAMMED vector=0xD1 (legacy would be 0x70) rte=0x01000000000008D1 kernelFound=1
[rtc-diag] tick #19 FIRED vector=0xD1, skippedTotal=0 firedTotal=19
[u43] pass1 gsi=8 PROGRAMMED vector=0xD1 (legacy would be 0x70) rte=0x01000000000008D1 kernelFound=1
[rtc-diag] tick #20 FIRED vector=0xD1, skippedTotal=0 firedTotal=20
[u43] pass1 gsi=8 PROGRAMMED vector=0xD1 (legacy would be 0x70) rte=0x01000000000008D1 kernelFound=1
[rtc-diag] tick #21 FIRED vector=0xD1, skippedTotal=0 firedTotal=21
[u43] pass1 gsi=8 PROGRAMMED vector=0xD1 (legacy would be 0x70) rte=0x01000000000008D1 kernelFound=1
[rtc-diag] tick #22 FIRED vector=0xD1, skippedTotal=0 firedTotal=22
[u43] pass1 gsi=8 PROGRAMMED vector=0xD1 (legacy would be 0x70) rte=0x01000000000008D1 kernelFound=1
[rtc-diag] tick #23 FIRED vector=0xD1, skippedTotal=0 firedTotal=23
[u43] pass1 gsi=8 PROGRAMMED vector=0xD1 (legacy would be 0x70) rte=0x01000000000008D1 kernelFound=1
[rtc-diag] tick #24 FIRED vector=0xD1, skippedTotal=0 firedTotal=24
[u43] pass1 gsi=8 PROGRAMMED vector=0xD1 (legacy would be 0x70) rte=0x01000000000008D1 kernelFound=1
[rtc-diag] tick #25 FIRED vector=0xD1, skippedTotal=0 firedTotal=25
[rtc-diag] tick #26 FIRED vector=0xD1, skippedTotal=0 firedTotal=26
[rtc-diag] tick #27 FIRED vector=0xD1, skippedTotal=0 firedTotal=27
[rtc-diag] tick #28 FIRED vector=0xD1, skippedTotal=0 firedTotal=28
[rtc-diag] tick #29 FIRED vector=0xD1, skippedTotal=0 firedTotal=29
[rtc-diag] tick #30 FIRED vector=0xD1, skippedTotal=0 firedTotal=30
[heartbeat: exitCount=140000 elapsedSec=7.2 lastPort=0xCF8 write=1 val=0xC rip=0xFFFFF801511BD387 irql=15]
[heartbeat]   ntoskrnl+0x3BD387  (resolve: tools/pdbsym.py near <rva>)
[heartbeat]   totals: pciCfgAccesses=11690 ahciCmds=3991 (reads=3988 writes=0 other=3)
[cmos-ab] write reg=0x0B value=0x02 (RegA=0x25 RegB=0x02, PIE=0)
[u33] EDGE pass=1 exitCount=140864 pool[0]: +0x08 0x0->0xFFFFD98B14C02000 +0x10 0x0->0xFFFF9484F4400000 +0x08 INIT(null->set) +0x10 INIT(null->set)
[heartbeat: exitCount=145000 elapsedSec=7.3 lastPort=0xCF8 write=1 val=0xC rip=0xFFFFF801511BC3C5 irql=15]
[heartbeat]   ntoskrnl+0x3BC3C5  (resolve: tools/pdbsym.py near <rva>)
[heartbeat]   totals: pciCfgAccesses=13354 ahciCmds=3991 (reads=3988 writes=0 other=3)
[heartbeat: exitCount=150000 elapsedSec=7.3 lastPort=0xCFC write=0 val=0xC rip=0xFFFFF801511BD397 irql=15]
[heartbeat]   ntoskrnl+0x3BD397  (resolve: tools/pdbsym.py near <rva>)
[heartbeat]   totals: pciCfgAccesses=15021 ahciCmds=3991 (reads=3988 writes=0 other=3)
[heartbeat: exitCount=155000 elapsedSec=7.4 lastPort=0xCF8 write=1 val=0xC rip=0xFFFFF801511BD387 irql=15]
[heartbeat]   ntoskrnl+0x3BD387  (resolve: tools/pdbsym.py near <rva>)
[heartbeat]   totals: pciCfgAccesses=16687 ahciCmds=3991 (reads=3988 writes=0 other=3)
[heartbeat: exitCount=160000 elapsedSec=7.5 lastPort=0xCF8 write=1 val=0xC rip=0xFFFFF801511BC3C5 irql=15]
[heartbeat]   ntoskrnl+0x3BC3C5  (resolve: tools/pdbsym.py near <rva>)
[heartbeat]   totals: pciCfgAccesses=18354 ahciCmds=3991 (reads=3988 writes=0 other=3)
[cmos-ab] write reg=0x0B value=0x02 (RegA=0x25 RegB=0x02, PIE=0)
[ioapic-rte] controller id=1 entry=8 reg=0x21 value=0x01000000 -> full RTE now 0x01000000000008D1 (vector=0xD1 masked=0)
[ioapic-rte] controller id=1 entry=8 reg=0x20 value=0x000008D1 -> full RTE now 0x01000000000008D1 (vector=0xD1 masked=0)
[cmos-ab] write reg=0x0B value=0x42 (RegA=0x25 RegB=0x42, PIE=1)
[heartbeat: exitCount=165000 elapsedSec=7.6 lastPort=0xB008 write=0 val=0x9 rip=0xFFFFF80151165445 irql=14]
[heartbeat]   ntoskrnl+0x365445  (resolve: tools/pdbsym.py near <rva>)
[heartbeat]   totals: pciCfgAccesses=19646 ahciCmds=3991 (reads=3988 writes=0 other=3)
[heartbeat: exitCount=170000 elapsedSec=7.7 lastPort=0xB008 write=0 val=0x9 rip=0xFFFFF80151165445 irql=14]
[heartbeat]   ntoskrnl+0x365445  (resolve: tools/pdbsym.py near <rva>)
[heartbeat]   totals: pciCfgAccesses=19646 ahciCmds=3991 (reads=3988 writes=0 other=3)
[heartbeat: exitCount=175000 elapsedSec=8.1 lastPort=0xCFC write=0 val=0xC rip=0xFFFFF801512CC6AD irql=15]
[heartbeat]   ntoskrnl+0x4CC6AD  (resolve: tools/pdbsym.py near <rva>)
[heartbeat]   totals: pciCfgAccesses=20331 ahciCmds=3991 (reads=3988 writes=0 other=3)
[ioapic-rte] controller id=1 entry=9 reg=0x22 value=0x0000A9B0 -> full RTE now 0x010000000000A9B0 (vector=0xB0 masked=0)
[cmos-ab] write reg=0x0B value=0x02 (RegA=0x25 RegB=0x02, PIE=0)
[cmos-ab] write reg=0x0B value=0x42 (RegA=0x25 RegB=0x42, PIE=1)
[ioapic-rte] controller id=1 entry=16 reg=0x30 value=0x0000A950 -> full RTE now 0x010000000000A950 (vector=0x50 masked=0)
[cmos-ab] write reg=0x0B value=0x02 (RegA=0x25 RegB=0x02, PIE=0)
[cmos-ab] write reg=0x0B value=0x42 (RegA=0x25 RegB=0x42, PIE=1)
[cmos-ab] write reg=0x0B value=0x02 (RegA=0x25 RegB=0x02, PIE=0)
[cmos-ab] write reg=0x0B value=0x42 (RegA=0x25 RegB=0x42, PIE=1)
[cmos-ab] write reg=0x0B value=0x02 (RegA=0x25 RegB=0x02, PIE=0)
[cmos-ab] write reg=0x0B value=0x42 (RegA=0x25 RegB=0x42, PIE=1)
[cmos-ab] write reg=0x0B value=0x02 (RegA=0x25 RegB=0x02, PIE=0)
[cmos-ab] write reg=0x0B value=0x42 (RegA=0x25 RegB=0x42, PIE=1)
[cmos-ab] write reg=0x0B value=0x02 (RegA=0x25 RegB=0x02, PIE=0)
[cmos-ab] write reg=0x0B value=0x42 (RegA=0x25 RegB=0x42, PIE=1)
[cmos-ab] write reg=0x0B value=0x02 (RegA=0x25 RegB=0x02, PIE=0)
[cmos-ab] write reg=0x0B value=0x42 (RegA=0x25 RegB=0x42, PIE=1)
[cmos-ab] write reg=0x0B value=0x02 (RegA=0x25 RegB=0x02, PIE=0)
[cmos-ab] write reg=0x0B value=0x42 (RegA=0x25 RegB=0x42, PIE=1)
[cmos-ab] write reg=0x0B value=0x02 (RegA=0x25 RegB=0x02, PIE=0)
[cmos-ab] write reg=0x0B value=0x42 (RegA=0x25 RegB=0x42, PIE=1)
[cmos-ab] write reg=0x0B value=0x02 (RegA=0x25 RegB=0x02, PIE=0)
[cmos-ab] write reg=0x0B value=0x42 (RegA=0x25 RegB=0x42, PIE=1)
[cmos-ab] write reg=0x0B value=0x02 (RegA=0x25 RegB=0x02, PIE=0)
[cmos-ab] write reg=0x0B value=0x42 (RegA=0x25 RegB=0x42, PIE=1)
[cmos-ab] write reg=0x0B value=0x02 (RegA=0x25 RegB=0x02, PIE=0)
[cmos-ab] write reg=0x0B value=0x42 (RegA=0x25 RegB=0x42, PIE=1)
[cmos-ab] write reg=0x0B value=0x02 (RegA=0x25 RegB=0x02, PIE=0)
[cmos-ab] write reg=0x0B value=0x42 (RegA=0x25 RegB=0x42, PIE=1)
[cmos-ab] write reg=0x0B value=0x02 (RegA=0x25 RegB=0x02, PIE=0)
[cmos-ab] write reg=0x0B value=0x42 (RegA=0x25 RegB=0x42, PIE=1)
[cmos-ab] write reg=0x0B value=0x02 (RegA=0x25 RegB=0x02, PIE=0)
[cmos-ab] write reg=0x0B value=0x42 (RegA=0x25 RegB=0x42, PIE=1)
[heartbeat: exitCount=180000 elapsedSec=12.0 lastPort=0xB008 write=0 val=0xC rip=0xFFFFF801512024B0 irql=0]
[heartbeat]   ntoskrnl+0x4024B0  (resolve: tools/pdbsym.py near <rva>)
[heartbeat]   totals: pciCfgAccesses=20901 ahciCmds=3991 (reads=3988 writes=0 other=3)
[cmos-ab] write reg=0x0B value=0x02 (RegA=0x25 RegB=0x02, PIE=0)
[cmos-ab] write reg=0x0B value=0x42 (RegA=0x25 RegB=0x42, PIE=1)
[cmos-ab] write reg=0x0B value=0x02 (RegA=0x25 RegB=0x02, PIE=0)
[cmos-ab] write reg=0x0B value=0x42 (RegA=0x25 RegB=0x42, PIE=1)
[cmos-ab] write reg=0x0B value=0x02 (RegA=0x25 RegB=0x02, PIE=0)
[cmos-ab] write reg=0x0B value=0x42 (RegA=0x25 RegB=0x42, PIE=1)
[cmos-ab] write reg=0x0B value=0x02 (RegA=0x25 RegB=0x02, PIE=0)
[cmos-ab] write reg=0x0B value=0x42 (RegA=0x25 RegB=0x42, PIE=1)
[cmos-ab] write reg=0x0B value=0x02 (RegA=0x25 RegB=0x02, PIE=0)
[cmos-ab] write reg=0x0B value=0x42 (RegA=0x25 RegB=0x42, PIE=1)
[cmos-ab] write reg=0x0B value=0x02 (RegA=0x25 RegB=0x02, PIE=0)
[cmos-ab] write reg=0x0B value=0x42 (RegA=0x25 RegB=0x42, PIE=1)
[cmos-ab] write reg=0x0B value=0x02 (RegA=0x25 RegB=0x02, PIE=0)
[cmos-ab] write reg=0x0B value=0x42 (RegA=0x25 RegB=0x42, PIE=1)
[cmos-ab] write reg=0x0B value=0x02 (RegA=0x25 RegB=0x02, PIE=0)
[cmos-ab] write reg=0x0B value=0x42 (RegA=0x25 RegB=0x42, PIE=1)
[cmos-ab] write reg=0x0B value=0x02 (RegA=0x25 RegB=0x02, PIE=0)
[cmos-ab] write reg=0x0B value=0x42 (RegA=0x25 RegB=0x42, PIE=1)
[rtc-diag] tick #500 FIRED vector=0xD1, skippedTotal=21 firedTotal=479
[cmos-ab] write reg=0x0B value=0x02 (RegA=0x25 RegB=0x02, PIE=0)
[cmos-ab] write reg=0x0B value=0x42 (RegA=0x25 RegB=0x42, PIE=1)
[cmos-ab] write reg=0x0B value=0x02 (RegA=0x25 RegB=0x02, PIE=0)
[cmos-ab] write reg=0x0B value=0x42 (RegA=0x25 RegB=0x42, PIE=1)
[cmos-ab] write reg=0x0B value=0x02 (RegA=0x25 RegB=0x02, PIE=0)
[cmos-ab] write reg=0x0B value=0x42 (RegA=0x25 RegB=0x42, PIE=1)
[cmos-ab] write reg=0x0B value=0x02 (RegA=0x25 RegB=0x02, PIE=0)
[cmos-ab] write reg=0x0B value=0x42 (RegA=0x25 RegB=0x42, PIE=1)
[cmos-ab] write reg=0x0B value=0x02 (RegA=0x25 RegB=0x02, PIE=0)
[cmos-ab] write reg=0x0B value=0x42 (RegA=0x25 RegB=0x42, PIE=1)
[cmos-ab] write reg=0x0B value=0x02 (RegA=0x25 RegB=0x02, PIE=0)
[cmos-ab] write reg=0x0B value=0x42 (RegA=0x25 RegB=0x42, PIE=1)
[cmos-ab] write reg=0x0B value=0x02 (RegA=0x25 RegB=0x02, PIE=0)
[cmos-ab] write reg=0x0B value=0x42 (RegA=0x25 RegB=0x42, PIE=1)
[cmos-ab] write reg=0x0B value=0x02 (RegA=0x25 RegB=0x02, PIE=0)
[cmos-ab] write reg=0x0B value=0x42 (RegA=0x25 RegB=0x42, PIE=1)
[cmos-ab] write reg=0x0B value=0x02 (RegA=0x25 RegB=0x02, PIE=0)
[cmos-ab] write reg=0x0B value=0x42 (RegA=0x25 RegB=0x42, PIE=1)
[cmos-ab] write reg=0x0B value=0x02 (RegA=0x25 RegB=0x02, PIE=0)
[cmos-ab] write reg=0x0B value=0x42 (RegA=0x25 RegB=0x42, PIE=1)
[cmos-ab] write reg=0x0B value=0x02 (RegA=0x25 RegB=0x02, PIE=0)
[cmos-ab] write reg=0x0B value=0x42 (RegA=0x25 RegB=0x42, PIE=1)
[cmos-ab] write reg=0x0B value=0x02 (RegA=0x25 RegB=0x02, PIE=0)
[cmos-ab] write reg=0x0B value=0x42 (RegA=0x25 RegB=0x42, PIE=1)
[cmos-ab] write reg=0x0B value=0x02 (RegA=0x25 RegB=0x02, PIE=0)
[cmos-ab] write reg=0x0B value=0x42 (RegA=0x25 RegB=0x42, PIE=1)
[cmos-ab] write reg=0x0B value=0x02 (RegA=0x25 RegB=0x02, PIE=0)
[cmos-ab] write reg=0x0B value=0x42 (RegA=0x25 RegB=0x42, PIE=1)
[cmos-ab] write reg=0x0B value=0x02 (RegA=0x25 RegB=0x02, PIE=0)
[cmos-ab] write reg=0x0B value=0x42 (RegA=0x25 RegB=0x42, PIE=1)
[cmos-ab] write reg=0x0B value=0x02 (RegA=0x25 RegB=0x02, PIE=0)
[cmos-ab] write reg=0x0B value=0x42 (RegA=0x25 RegB=0x42, PIE=1)
[cmos-ab] write reg=0x0B value=0x02 (RegA=0x25 RegB=0x02, PIE=0)
[cmos-ab] write reg=0x0B value=0x42 (RegA=0x25 RegB=0x42, PIE=1)
[cmos-ab] write reg=0x0B value=0x02 (RegA=0x25 RegB=0x02, PIE=0)
[cmos-ab] write reg=0x0B value=0x42 (RegA=0x25 RegB=0x42, PIE=1)
[cmos-ab] write reg=0x0B value=0x02 (RegA=0x25 RegB=0x02, PIE=0)
[cmos-ab] write reg=0x0B value=0x42 (RegA=0x25 RegB=0x42, PIE=1)
[cmos-ab] write reg=0x0B value=0x02 (RegA=0x25 RegB=0x02, PIE=0)
[cmos-ab] write reg=0x0B value=0x42 (RegA=0x25 RegB=0x42, PIE=1)
[heartbeat: exitCount=185000 elapsedSec=25.5 lastPort=0x70 write=1 val=0xC rip=0xFFFFF801511652E8 irql=15]
[heartbeat]   ntoskrnl+0x3652E8  (resolve: tools/pdbsym.py near <rva>)
[heartbeat]   totals: pciCfgAccesses=20904 ahciCmds=3992 (reads=3988 writes=0 other=4)
[aux] controller: disable AUX port
[aux] controller: enable AUX port
[aux] controller: disable AUX port
[aux] controller: enable AUX port
[ioapic-rte] controller id=1 entry=3 reg=0x16 value=0x00000960 -> full RTE now 0x0100000000000960 (vector=0x60 masked=0)
[rtc-diag] tick #1000 FIRED vector=0xD1, skippedTotal=41 firedTotal=959
[heartbeat: exitCount=190000 elapsedSec=29.9 lastPort=0xB008 write=0 val=0xC rip=0xFFFFF80151165445 irql=0]
[heartbeat]   ntoskrnl+0x365445  (resolve: tools/pdbsym.py near <rva>)
[heartbeat]   totals: pciCfgAccesses=20905 ahciCmds=3992 (reads=3988 writes=0 other=4)
[heartbeat: exitCount=195000 elapsedSec=31.1 lastPort=0xB008 write=0 val=0xC rip=0xFFFFF80151165445 irql=0]
[heartbeat]   ntoskrnl+0x365445  (resolve: tools/pdbsym.py near <rva>)
[heartbeat]   totals: pciCfgAccesses=20905 ahciCmds=3992 (reads=3988 writes=0 other=4)
[heartbeat: exitCount=200000 elapsedSec=31.9 lastPort=0xB008 write=0 val=0xC rip=0xFFFFF80151165445 irql=0]
[heartbeat]   ntoskrnl+0x365445  (resolve: tools/pdbsym.py near <rva>)
[heartbeat]   totals: pciCfgAccesses=20905 ahciCmds=3992 (reads=3988 writes=0 other=4)
[heartbeat: exitCount=205000 elapsedSec=32.3 lastPort=0xB008 write=0 val=0xC rip=0xFFFFF80151165445 irql=0]
[heartbeat]   ntoskrnl+0x365445  (resolve: tools/pdbsym.py near <rva>)
[heartbeat]   totals: pciCfgAccesses=20905 ahciCmds=3992 (reads=3988 writes=0 other=4)
[heartbeat: exitCount=210000 elapsedSec=34.1 lastPort=0xB008 write=0 val=0xC rip=0xFFFFF80151165445 irql=0]
[heartbeat]   ntoskrnl+0x365445  (resolve: tools/pdbsym.py near <rva>)
[heartbeat]   totals: pciCfgAccesses=20905 ahciCmds=3992 (reads=3988 writes=0 other=4)
[rtc-diag] tick #1500 FIRED vector=0xD1, skippedTotal=42 firedTotal=1458
[heartbeat: exitCount=215000 elapsedSec=34.6 lastPort=0xB008 write=0 val=0xC rip=0xFFFFF80151165445 irql=0]
[heartbeat]   ntoskrnl+0x365445  (resolve: tools/pdbsym.py near <rva>)
[heartbeat]   totals: pciCfgAccesses=20905 ahciCmds=3992 (reads=3988 writes=0 other=4)
[heartbeat: exitCount=220000 elapsedSec=34.7 lastPort=0xB008 write=0 val=0xC rip=0xFFFFF80151165445 irql=0]
[heartbeat]   ntoskrnl+0x365445  (resolve: tools/pdbsym.py near <rva>)
[heartbeat]   totals: pciCfgAccesses=20905 ahciCmds=3992 (reads=3988 writes=0 other=4)
[heartbeat: exitCount=225000 elapsedSec=34.8 lastPort=0xB008 write=0 val=0xC rip=0xFFFFF80151165445 irql=0]
[heartbeat]   ntoskrnl+0x365445  (resolve: tools/pdbsym.py near <rva>)
[heartbeat]   totals: pciCfgAccesses=20905 ahciCmds=3992 (reads=3988 writes=0 other=4)
[heartbeat: exitCount=230000 elapsedSec=34.9 lastPort=0xB008 write=0 val=0xC rip=0xFFFFF80151165445 irql=0]
[heartbeat]   ntoskrnl+0x365445  (resolve: tools/pdbsym.py near <rva>)
[heartbeat]   totals: pciCfgAccesses=20905 ahciCmds=3992 (reads=3988 writes=0 other=4)
[heartbeat: exitCount=235000 elapsedSec=34.9 lastPort=0xB008 write=0 val=0xC rip=0xFFFFF80151165445 irql=0]
[heartbeat]   ntoskrnl+0x365445  (resolve: tools/pdbsym.py near <rva>)
[heartbeat]   totals: pciCfgAccesses=20905 ahciCmds=3992 (reads=3988 writes=0 other=4)
[heartbeat: exitCount=240000 elapsedSec=35.0 lastPort=0xB008 write=0 val=0xC rip=0xFFFFF80151165445 irql=0]
[heartbeat]   ntoskrnl+0x365445  (resolve: tools/pdbsym.py near <rva>)
[heartbeat]   totals: pciCfgAccesses=20905 ahciCmds=3992 (reads=3988 writes=0 other=4)
[heartbeat: exitCount=245000 elapsedSec=35.1 lastPort=0xB008 write=0 val=0xC rip=0xFFFFF80151165445 irql=0]
[heartbeat]   ntoskrnl+0x365445  (resolve: tools/pdbsym.py near <rva>)
[heartbeat]   totals: pciCfgAccesses=20905 ahciCmds=3992 (reads=3988 writes=0 other=4)
[heartbeat: exitCount=250000 elapsedSec=35.1 lastPort=0xB008 write=0 val=0xC rip=0xFFFFF80151165445 irql=0]
[heartbeat]   ntoskrnl+0x365445  (resolve: tools/pdbsym.py near <rva>)
[heartbeat]   totals: pciCfgAccesses=20905 ahciCmds=3992 (reads=3988 writes=0 other=4)
[u40] === RIP histogram pass 1 (periodic): 2500 samples, base=0xFFFFF80150E00000 ===
[u40]      900  page 0xFFFFF80151165000  = base+0x365000
[u40]      765  page 0xBEA03000
[u40]      165  page 0x1DD9000
[u40]      165  page 0xFFFFF801511BD000  = base+0x3BD000
[u40]      124  page 0xBF14E000
[u40]      107  page 0xBE41C000
[u40]       85  page 0xFFFFF801511BC000  = base+0x3BC000
[u40]       58  page 0xBFC50000
[u40]       37  page 0xBFD68000
[u40]       22  page 0xBE422000
[u40]       21  page 0xFFFFF801512CC000  = base+0x4CC000
[u40]       14  page 0xBF174000
[u40]       11  page 0xBF16B000
[u40]        9  page 0xFFFFF80151202000  = base+0x402000
[u40]        3  page 0xFFFFF801511A5000  = base+0x3A5000
[u40]        3  page 0xFFFFF80434E03000
[u40]        2  page 0x848000
[u40]        2  page 0xFFFFF80156114000
[u40]   most recent 256 samples (newest last):
[u40]     FFFFF80151165444@224401 FFFFF80151165444@224501 FFFFF80151165444@224601 FFFFF80151165444@224701 FFFFF80151165444@224801 FFFFF80151165444@224901 FFFFF80151165444@225001 FFFFF80151165444@225101 FFFFF80151165444@225201 FFFFF80151165444@225301 FFFFF80151165444@225401 FFFFF80151165444@225501 FFFFF80151165444@225601 FFFFF80151165444@225701 FFFFF80151165444@225801 FFFFF80151165444@225901 FFFFF80151165444@226001 FFFFF80151165444@226101 FFFFF80151165444@226201 FFFFF80151165444@226301 FFFFF80151165444@226401 FFFFF80151165444@226501 FFFFF80151165444@226601 FFFFF80151165444@226701 FFFFF80151165444@226801 FFFFF80151165444@226901 FFFFF80151165444@227001 FFFFF80151165444@227101 FFFFF80151165444@227201 FFFFF80151165444@227301 FFFFF80151165444@227401 FFFFF80151165444@227501 FFFFF80151165444@227601 FFFFF80151165444@227701 FFFFF801511652E7@227801 FFFFF80151165444@227901 FFFFF80151165444@228001 FFFFF80151165444@228101 FFFFF80151165444@228201 FFFFF80151165444@228301 FFFFF80151165444@228401 FFFFF80151165444@228501 FFFFF80151165444@228601 FFFFF80151165444@228701 FFFFF80151165444@228801 FFFFF80151165444@228901 FFFFF80151165444@229001 FFFFF80151165444@229101 FFFFF80151165444@229201 FFFFF80151165444@229301 FFFFF80151165444@229401 FFFFF80151165444@229501 FFFFF80151165444@229601 FFFFF80151165444@229701 FFFFF80151165444@229801 FFFFF80151165444@229901 FFFFF80151165444@230001 FFFFF80151165444@230101 FFFFF80151165444@230201 FFFFF80151165444@230301 FFFFF80151165444@230401 FFFFF80151165444@230501 FFFFF80151165444@230601 FFFFF80151165444@230701 FFFFF80151165444@230801 FFFFF80151165444@230901 FFFFF80151165444@231001 FFFFF80151165444@231101 FFFFF80151165444@231201 FFFFF80151165444@231301 FFFFF80151165444@231401 FFFFF80151165444@231501 FFFFF80151165444@231601 FFFFF80151165444@231701 FFFFF80151165444@231801 FFFFF80151165444@231901 FFFFF80151165444@232001 FFFFF80151165444@232101 FFFFF80151165444@232201 FFFFF80151165444@232301 FFFFF80151165444@232401 FFFFF80151165444@232501 FFFFF80151165444@232601 FFFFF80151165444@232701 FFFFF80151165444@232801 FFFFF80151165444@232901 FFFFF80151165444@233001 FFFFF80151165444@233101 FFFFF80151165444@233201 FFFFF80151165444@233301 FFFFF80151165444@233401 FFFFF80151165444@233501 FFFFF80151165444@233601 FFFFF80151165444@233701 FFFFF80151165444@233801 FFFFF80151165444@233901 FFFFF80151165444@234001 FFFFF80151165444@234101 FFFFF80151165444@234201 FFFFF80151165444@234301 FFFFF80151165444@234401 FFFFF80151165444@234501 FFFFF80151165444@234601 FFFFF80151165444@234701 FFFFF80151165444@234801 FFFFF80151165444@234901 FFFFF80151165444@235001 FFFFF80151165444@235101 FFFFF80151165444@235201 FFFFF80151165444@235301 FFFFF80151165444@235401 FFFFF80151165444@235501 FFFFF80151165444@235601 FFFFF80151165444@235701 FFFFF80151165444@235801 FFFFF80151165444@235901 FFFFF80151165444@236001 FFFFF80151165444@236101 FFFFF80151165444@236201 FFFFF80151165444@236301 FFFFF80151165444@236401 FFFFF80151165444@236501 FFFFF80151165444@236601 FFFFF80151165444@236701 FFFFF80151165444@236801 FFFFF80151165444@236901 FFFFF80151165444@237001 FFFFF80151165444@237101 FFFFF80151165444@237201 FFFFF80151165444@237301 FFFFF80151165444@237401 FFFFF80151165444@237501 FFFFF80151165444@237601 FFFFF80151165444@237701 FFFFF80151165444@237801 FFFFF80151165444@237901 FFFFF80151165444@238001 FFFFF80151165444@238101 FFFFF80151165444@238201 FFFFF80151165444@238301 FFFFF80151165444@238401 FFFFF80151165444@238501 FFFFF80151165444@238601 FFFFF80151165444@238701 FFFFF80151165444@238801 FFFFF80151165444@238901 FFFFF80151165444@239001 FFFFF80151165444@239101 FFFFF80151165444@239201 FFFFF80151165444@239301 FFFFF80151165444@239401 FFFFF80151165444@239501 FFFFF80151165444@239601 FFFFF80151165444@239701 FFFFF80151165444@239801 FFFFF80151165444@239901 FFFFF80151165444@240001 FFFFF80151165444@240101 FFFFF80151165444@240201 FFFFF80151165444@240301 FFFFF80151165444@240401 FFFFF80151165444@240501 FFFFF80151165444@240601 FFFFF80151165444@240701 FFFFF80151165444@240801 FFFFF80151165444@240901 FFFFF801511652E7@241001 FFFFF80151165444@241101 FFFFF80151165444@241201 FFFFF80151165444@241301 FFFFF80151165444@241401 FFFFF80151165444@241501 FFFFF80151165444@241601 FFFFF80151165444@241701 FFFFF80151165444@241801 FFFFF80151165444@241901 FFFFF80151165444@242001 FFFFF80151165444@242101 FFFFF80151165444@242201 FFFFF80151165444@242301 FFFFF80151165444@242401 FFFFF80151165444@242501 FFFFF80151165444@242601 FFFFF80151165444@242701 FFFFF80151165444@242801 FFFFF80151165444@242901 FFFFF80151165444@243001 FFFFF80151165444@243101 FFFFF80151165444@243201 FFFFF80151165444@243301 FFFFF80151165444@243401 FFFFF80151165444@243501 FFFFF80151165444@243601 FFFFF80151165444@243701 FFFFF80151165444@243801 FFFFF80151165444@243901 FFFFF80151165444@244001 FFFFF80151165444@244101 FFFFF80151165444@244201 FFFFF80151165444@244301 FFFFF80151165444@244401 FFFFF80151165444@244501 FFFFF80151165444@244601 FFFFF80151165444@244701 FFFFF80151165444@244801 FFFFF80151165444@244901 FFFFF80151165444@245001 FFFFF80151165444@245101 FFFFF80151165444@245201 FFFFF80151165444@245301 FFFFF80151165444@245401 FFFFF80151165444@245501 FFFFF80151165444@245601 FFFFF80151165444@245701 FFFFF80151165444@245801 FFFFF80151165444@245901 FFFFF80151165444@246001 FFFFF80151165444@246101 FFFFF80151165444@246201 FFFFF80151165444@246301 FFFFF80151165444@246401 FFFFF80151165444@246501 FFFFF80151165444@246601 FFFFF80151165444@246701 FFFFF80151165444@246801 FFFFF80151165444@246901 FFFFF80151165444@247001 FFFFF80151165444@247101 FFFFF80151165444@247201 FFFFF80151165444@247301 FFFFF801511652E7@247401 FFFFF80151165444@247501 FFFFF80151165444@247601 FFFFF80151165444@247701 FFFFF80151165444@247801 FFFFF80151165444@247901 FFFFF80151165444@248001 FFFFF80151165444@248101 FFFFF80151165444@248201 FFFFF80151165444@248301 FFFFF80151165444@248401 FFFFF80151165444@248501 FFFFF80151165444@248601 FFFFF80151165444@248701 FFFFF80151165444@248801 FFFFF80151165444@248901 FFFFF80151165444@249001 FFFFF80151165444@249101 FFFFF80151165444@249201 FFFFF80151165444@249301 FFFFF80151165444@249401 FFFFF80151165444@249501 FFFFF80151165444@249601 FFFFF80151165444@249701 FFFFF80151165444@249801 FFFFF80151165444@249901
[heartbeat: exitCount=255000 elapsedSec=35.2 lastPort=0xB008 write=0 val=0xC rip=0xFFFFF80151165445 irql=0]
[heartbeat]   ntoskrnl+0x365445  (resolve: tools/pdbsym.py near <rva>)
[heartbeat]   totals: pciCfgAccesses=20905 ahciCmds=3992 (reads=3988 writes=0 other=4)
[heartbeat: exitCount=260000 elapsedSec=35.3 lastPort=0xB008 write=0 val=0xC rip=0xFFFFF80151165445 irql=0]
[heartbeat]   ntoskrnl+0x365445  (resolve: tools/pdbsym.py near <rva>)
[heartbeat]   totals: pciCfgAccesses=20905 ahciCmds=3992 (reads=3988 writes=0 other=4)
[heartbeat: exitCount=265000 elapsedSec=35.4 lastPort=0xB008 write=0 val=0xC rip=0xFFFFF80151165445 irql=0]
[heartbeat]   ntoskrnl+0x365445  (resolve: tools/pdbsym.py near <rva>)
[heartbeat]   totals: pciCfgAccesses=20905 ahciCmds=3992 (reads=3988 writes=0 other=4)
[heartbeat: exitCount=270000 elapsedSec=35.4 lastPort=0xB008 write=0 val=0xC rip=0xFFFFF80151165445 irql=0]
[heartbeat]   ntoskrnl+0x365445  (resolve: tools/pdbsym.py near <rva>)
[heartbeat]   totals: pciCfgAccesses=20905 ahciCmds=3992 (reads=3988 writes=0 other=4)
[heartbeat: exitCount=275000 elapsedSec=35.5 lastPort=0xB008 write=0 val=0xC rip=0xFFFFF80151165445 irql=0]
[heartbeat]   ntoskrnl+0x365445  (resolve: tools/pdbsym.py near <rva>)
[heartbeat]   totals: pciCfgAccesses=20905 ahciCmds=3992 (reads=3988 writes=0 other=4)
[heartbeat: exitCount=280000 elapsedSec=35.6 lastPort=0xB008 write=0 val=0xC rip=0xFFFFF80151165445 irql=0]
[heartbeat]   ntoskrnl+0x365445  (resolve: tools/pdbsym.py near <rva>)
[heartbeat]   totals: pciCfgAccesses=20905 ahciCmds=3992 (reads=3988 writes=0 other=4)
[heartbeat: exitCount=285000 elapsedSec=35.7 lastPort=0xB008 write=0 val=0xC rip=0xFFFFF80151165445 irql=0]
[heartbeat]   ntoskrnl+0x365445  (resolve: tools/pdbsym.py near <rva>)
[heartbeat]   totals: pciCfgAccesses=20905 ahciCmds=3992 (reads=3988 writes=0 other=4)
[heartbeat: exitCount=290000 elapsedSec=35.7 lastPort=0xB008 write=0 val=0xC rip=0xFFFFF80151165445 irql=0]
[heartbeat]   ntoskrnl+0x365445  (resolve: tools/pdbsym.py near <rva>)
[heartbeat]   totals: pciCfgAccesses=20905 ahciCmds=3992 (reads=3988 writes=0 other=4)
[heartbeat: exitCount=295000 elapsedSec=35.8 lastPort=0xB008 write=0 val=0xC rip=0xFFFFF80151165445 irql=0]
[heartbeat]   ntoskrnl+0x365445  (resolve: tools/pdbsym.py near <rva>)
[heartbeat]   totals: pciCfgAccesses=20905 ahciCmds=3992 (reads=3988 writes=0 other=4)
[heartbeat: exitCount=300000 elapsedSec=41.4 lastPort=0x71 write=0 val=0xC rip=0xFFFFF801511652EE irql=15]
